 ****** HSPICE -- B-2008.09 32-BIT (Aug 26 2008) winnt ******                   
  Copyright (C) 2008 Synopsys, Inc. All Rights Reserved.                        
  Unpublished-rights reserved under US copyright laws.
  This program is protected by law and is subject to the 
  terms and conditions of the license agreement from Synopsys.
  Use of this program is your acceptance to be bound by the 
  license agreement. HSPICE is the trademark of Synopsys, Inc.
  Input File: c:\users\timer\documents\github\hspice\035lib\sizeandcurrent\curre
 Init: read install configuration file: C:\synopsys\Hspice_B-2008.09\meta.cfg
 Init: hspice initialization file: C:\synopsys\Hspice_B-2008.09\hspice.ini




 .options abstol=1e-7 reltol=1e-7
 + post=1 captab accurate=1 ingold=1
 ***netlist***

 .param wx = 2.9u
 + lx = 0.4u
 *mp vss vbp vdp vdp pch w = wx l = lx m = 1  * (id, w/l, m, vds, vgs)=(1.035u, 21u/1u, 1, 0.9, 0.7)
 *mp vdp vbp vdp vdp pch w = wx l = lx m = 2  * (id, w/l, m, vds, vgs)=(496.8n, 2u/0.4u, 2, 0.7, 0.7)
 *mp  vdp vgp vsp vsp pch w = wx l = lx m = 1  * (id, w/l, m, vds, vgs)=(504n, 3.2u/0.4u, 1, 1, 0.7)
 mp  vdp vgp vsp vsp pch w = wx l = lx m = 1  * (id, w/l, m, vds, vgs)=(507n, 2.9/0.4u, 1, 1.2, 0.7)
 *mn  vgn vgn vsn vsn nch w = wx l = lx m = 2  * (id, w/l, m, vds, vgs)=(495.2n, 2.7u/0.4u, 2, 0.5, 0.5)

 vpd vdp gnd dc = 0.5
 vps vsp gnd dc = 1.7
 vpg vgp gnd dc = 1
 vnd vdn gnd dc = 0.7
 vns vsn gnd dc = 0
 vng vgn gnd dc = 0.5


 ***
 .op
 .dc wx 0.4u 3u 0.1u
 .probe dc par('1/lx8(mp)') par('-i(mp)') par('v(vdd)-v(vbp)') i(mn) i(mp)
 *.print dc par('1/lx8(mp)') par('-i(mp)')
 .end


 **warning**  the accurate option increases  the cpu time but the results
                are more accurate.
 ***accurate option sets default value of the options: 
 lvltim= 4         dvdt= 3       relvar= 200.00m absvar= 200.00m
     ft= 200.00m relmos=  10.00m
 (used for FFT control ) fft_accurate= 1
 

 **warning** could not find branch element     0:mn              
      branch - output ignored
 **warning**  attempt to reference undefined node     0:vdd             
  in the definition of v(vdd,0)
   branch - output ignored

 **warning**  attempt to reference undefined node     0:vbp             
  in the definition of v(vbp,0)
   branch - output ignored

 

 **warning** the following singular supplies were terminated to 1 meg resistor 
   supply       node1            node2
  vnd                     0:vdn              defined in subckt 0                     0:0                defined in subckt 0               
  vng                     0:vgn              defined in subckt 0                     0:0                defined in subckt 0               
  vns                     0:vsn              defined in subckt 0                     0:0                defined in subckt 0               
      
1****** HSPICE -- B-2008.09 32-BIT (Aug 26 2008) winnt ******                   
 ******  
 *current

  ******  operating point information tnom=  25.000 temp=  25.000 *****
 ***** operating point status is all       simulation time is     0.     
    node    =voltage      node    =voltage      node    =voltage

 +0:vdn     =   0.7000  0:vdp     =   0.5000  0:vgn     =   0.5000 
 +0:vgp     =   1.0000  0:vsn     =   0.      0:vsp     =   1.7000 


 maximum nodal capacitance=   1.488E-14         on node     0:vsp             

    nodal  capacitance table 

    node    =    cap      node    =    cap      node    =    cap

 +0:vdn     =   0.      0:vdp     = 3.887e-15 0:vgn     =   0.     
 +0:vgp     = 2.064e-15 0:vsn     =   0.      0:vsp     = 1.488e-14

 

 ****  voltage sources

 subckt                                                                    
 element  0:vpd      0:vps      0:vpg      0:vnd      0:vns      0:vng     
  volts      0.5000     1.7000     1.0000     0.7000     0.         0.5000 
  current  5.071e-07 -5.071e-07    0.      -7.000e-07    0.      -5.000e-07
  power   -2.535e-07  8.620e-07    0.       4.900e-07    0.       2.500e-07

     total voltage source power dissipation=  1.348e-06       watts




 **** mosfets


 subckt             
 element  0:mp      
 model    0:pch.3   
 region       Cutoff
  id      -5.071e-07
  ibs      1.037e-19
  ibd      1.850e-15
  vgs       -0.7000 
  vds       -1.2000 
  vbs        0.     
  vth       -0.7106 
  vdsat   -7.538e-02
  vod      1.064e-02
  beta     3.475e-04
  gam eff    0.4448 
  gm       9.452e-06
  gds      2.806e-07
  gmb      2.020e-06
  cdtot    3.887e-15
  cgtot    2.064e-15
  cstot    5.542e-15
  cbtot    9.333e-15
  cgs      5.398e-16
  cgd      5.398e-16




          ***** job concluded
1****** HSPICE -- B-2008.09 32-BIT (Aug 26 2008) winnt ******                   
 ******  
 *current

  ******  job statistics summary tnom=  25.000 temp=  25.000 *****

  ******  HSPICE Threads Information  ******
  Command Line Threads Count:                      0
  Available CPU Count:                             4
  Actual Model Evaluation(Load) Threads Count:     1
  Actual Solver Threads Count:                     1


  ******  Circuit Statistics  ******
  # nodes       =      10  # elements   =      11
  # resistors   =       3  # capacitors =       0  # inductors   =       0
  # mutual_inds =       0  # vccs       =       0  # vcvs        =       0
  # cccs        =       0  # ccvs       =       0  # volt_srcs   =       7
  # curr_srcs   =       0  # diodes     =       0  # bjts        =       0
  # jfets       =       0  # mosfets    =       1  # U elements  =       0
  # T elements  =       0  # W elements =       0  # B elements  =       0
  # S elements  =       0  # P elements =       0  # va device   =       0


  ******  Runtime Statistics (seconds)  ******

  analysis           time    # points   tot. iter  conv.iter
  op point           0.01           1           4
  dc sweep           0.01          27          56
  readin             0.09
  errchk             0.01
  setup              0.01
  output             0.00


           total memory used          196  kbytes
           total cpu time            0.16 seconds
           total elapsed time           1 seconds
           job started at     22:17:32 12/22/2015
           job ended   at     22:17:32 12/22/2015


 Init: hspice initialization file: C:\synopsys\Hspice_B-2008.09\hspice.ini
