 ****** HSPICE -- B-2008.09 32-BIT (Aug 26 2008) winnt ******                   
  Copyright (C) 2008 Synopsys, Inc. All Rights Reserved.                        
  Unpublished-rights reserved under US copyright laws.
  This program is protected by law and is subject to the 
  terms and conditions of the license agreement from Synopsys.
  Use of this program is your acceptance to be bound by the 
  license agreement. HSPICE is the trademark of Synopsys, Inc.
  Input File: c:\users\timer\documents\github\hspice\op\035\subvthop_twostage\my
 Init: read install configuration file: C:\synopsys\Hspice_B-2008.09\meta.cfg
 Init: hspice initialization file: C:\synopsys\Hspice_B-2008.09\hspice.ini




 .option post acout=0 accurate=1 dcon=1 converge=1 gmindc=1.0000e-12 captab=1 unwrap=1
 *.option dccap=1 accurate=1 post

 ***param***
 .param
 +comon		= 2
 +bias		= 2.7
 +bias2		= 0.45
 +supplyp	= 3.3
 +supplyn	= 0
 +diff			= 0
 ***netlist***
 ***1st stage***
 mb	b	cp	vdd	vdd	pch	w = 31u  l = 1u	  m = 2
 m1	1	vinn	b		b		pch	w = 10u l = 0.4u m = 1
 m2	2	vinp	b		b		pch	w = 10u l = 0.4u m = 1
 m3	1	cn		vss	vss	nch	w = 4.2u l = 0.4u m = 2
 m4	2	cn		vss	vss	nch	w = 4.2u l = 0.4u m = 2


 ***2nd stage***
 m1pa	voa	voa	vdd	vdd	pch	w = 11u l = 0.4u    m = 2
 m1pb	von	von	voa	voa	pch	w = 11u l = 0.4u    m = 2
 m2pa	vo2	voa	vdd	vdd	pch	w = 11u l = 0.4u    m = 2
 m2pb	vop	von	vo2 vo2	pch	w = 11u l = 0.4u    m = 2
 m3n	    von	1   vss vss nch w = 5u  l = 0.4u    m = 1
 m4n	    vop	2   vss vss nch w = 5u  l = 0.4u    m = 1

 ***compensation***
 *ct	gnd		2   100f
 *con	gnd	von 500f
 con1 1 von 100f
 *cop2 2 vop 100f
 *c1   1 gnd 50f  *flatten end
 *c2   2 gnd 10f
 *cb   b gnd 10f         useless
 *cvoa gnd voa 600f      useless
 *cvo2 gnd vo2 1p
 *cvoavo2 voa vo2 500f
 *rz1	z1		1   350k
 *c2a	gnd voa 100f


 ***source***
 vd		vdd 	gnd dc supplyp
 vs		vss 	gnd dc supplyn
 vb 		b0		gnd dc bias
 vb1		b1		gnd dc bias2


 ***input***
 vinp vinp gnd dc = 'comon-diff' ac = 1
 *vinn vinn gnd dc = 'comon+diff' *ac = 1 180

 ***current mirror***
 iin cp vss dc = 500n
 mc0 cp cp vdd vdd pch w = 5u l = 0.4u m = 7
 mc1 c0 cp vdd vdd pch w = 5u l = 0.4u m = 2
 mc2 cn cn c0  c0  pch w = 1u l = 0.4u m = 1
 mc3 cn cn vss vss nch w = 5.1u l = 0.4u m = 3

 ***test
 *mt	vdt	vgt	vss	vss	nch	w = 2.7u   l = 0.5u m = 1
 *mt	vdt	vgt	vdd	vdd	pch w = 9.7u l = 0.5u m = 1

 *vtd	vdt	gnd dc = '1-499.7048m'
 *vtg	vgt	gnd dc = '1-397.6836m'

 ***feedback test***
 rf vop vinn 1x
 if vdd vinn  dc = 10n





 .op

 ***sweep***
 *.dc diff -0.5 0.5 0.01
 .dc if dec 100 1n 100n
 ***probe&measuring***
 *.ac dec 1000 10 1g
 *.tf v(1) vinp
 *.pz v(vop) vinp
 .probe dc i(m1) i(m2)	i(mt)
 .probe ac cap(von)
 +gain1st=par('vdb(2, 1)-vdb(vinp,vinn)')	par('i(m1)-i(m2)')	phase1st=par('vp(2,1)')
 +gainall=par('vdb(vop)-vdb(vinp,vinn)')		phaseall=par('vp(vop)')
 .meas ac gain max par('vdb(vop)-vdb(vinp,vinn)')
 .meas ac gain1st max par('vdb(2, 1)-vdb(vinp,vinn)')
 .meas ac zerodb when par('vdb(vop)-vdb(vinp,vinn)') = 0
 .meas ac phaseatdb	find par('vp(vop)') when par('vdb(vop)-vdb(vinp,vinn)') = 0

 *.noise v(1) vinn 10
 .end


 **warning**  the accurate option increases  the cpu time but the results
                are more accurate.
 ***accurate option sets default value of the options: 
 lvltim= 4         dvdt= 3       relvar= 200.00m absvar= 200.00m
     ft= 200.00m relmos=  10.00m
 (used for FFT control ) fft_accurate= 1
 

 **warning** could not find branch element     0:mt              
      branch - output ignored
 

 **warning** the following singular supplies were terminated to 1 meg resistor 
   supply       node1            node2
  vb                      0:b0               defined in subckt 0                     0:0                defined in subckt 0               
  vb1                     0:b1               defined in subckt 0                     0:0                defined in subckt 0               
      
  *** initial damped pseudo transient completed. ***
  *** final try started ***
1****** HSPICE -- B-2008.09 32-BIT (Aug 26 2008) winnt ******                   
 ******  
 ***myop_2stage

  ******  operating point information tnom=  25.000 temp=  25.000 *****
 ***** operating point status is all       simulation time is     0.     
    node    =voltage      node    =voltage      node    =voltage

 +0:1       = 392.4538m 0:2       = 402.4515m 0:b       =   2.5710 
 +0:b0      =   2.7000  0:b1      = 450.0000m 0:c0      =   1.2252 
 +0:cn      = 449.9268m 0:cp      =   2.7007  0:vdd     =   3.3000 
 +0:vinn    =   2.0005  0:vinp    =   2.0000  0:vo2     =   2.7634 
 +0:voa     =   2.7705  0:von     =   2.2409  0:vop     =   1.9905 
 +0:vss     =   0.     


 maximum nodal capacitance=   7.433E-13         on node     0:vdd             

    nodal  capacitance table 

    node    =    cap      node    =    cap      node    =    cap

 +0:1       = 125.9785f 0:2       =  25.9635f 0:b       = 167.8817f
 +0:b0      =   0.      0:b1      =   0.      0:c0      =  17.9291f
 +0:cn      =  50.1498f 0:cp      = 155.1721f 0:vdd     = 743.3376f
 +0:vinn    =   6.9074f 0:vinp    =   6.9068f 0:vo2     = 133.7544f
 +0:voa     = 166.3787f 0:von     = 167.1161f 0:vop     =  34.6028f
 +0:vss     = 180.9789f

 

 ****  voltage sources

 subckt                                                         
 element  0:vd       0:vs       0:vb       0:vb1      0:vinp    
  volts      3.3000     0.         2.7000   450.0000m    2.0000 
  current   -1.3942u    1.3942u   -2.7000u -450.0000n    0.     
  power      4.6009u    0.         7.2900u  202.5000n    0.     

     total voltage source power dissipation=   12.0934u       watts



 ***** current sources

 subckt                        
 element  0:iin      0:if      
  volts      2.7007     1.2995 
  current  500.0000n   10.0000n
  power     -1.3503u  -12.9953n


     total current source power dissipation=  -1.3633u       watts

 **** resistors

 subckt             
 element  0:rf      
  r value    1.0000x
  v drop   -10.0000m
  current  -10.0000n
  power    100.0000p



 **** mosfets


 subckt                                                                    
 element  0:mb       0:m1       0:m2       0:m3       0:m4       0:m1pa    
 model    0:pch.11   0:pch.3    0:pch.3    0:nch.3    0:nch.3    0:pch.3   
 region       Cutoff     Cutoff     Cutoff     Cutoff     Cutoff     Cutoff
  id      -403.4383n -201.2683n -202.1599n  201.2733n  202.1647n  -52.8745n
  ibs      7.927e-20  3.991e-20  4.009e-20 -3.291e-19 -3.305e-19  1.047e-20
  ibd        5.6318f    2.2110p    2.1237p  -12.1810f  -12.1810f    2.0318f
  vgs     -599.3222m -570.5261m -570.9974m  449.9268m  449.9268m -529.5294m
  vds     -729.0026m   -2.1785    -2.1685   392.4538m  402.4515m -529.5294m
  vbs        0.         0.         0.         0.         0.         0.     
  vth     -749.0796m -672.3105m -672.5793m  569.7186m  569.6433m -716.1660m
  vdsat    -52.5698m  -49.9359m  -49.9564m   44.0322m   44.0349m  -45.8244m
  vod      149.7574m  101.7844m  101.5819m -119.7918m -119.7165m  186.6366m
  beta       3.6745m    1.2829m    1.2828m    4.6792m    4.6792m    2.7929m
  gam eff  391.6940m  462.5849m  462.5849m  554.4915m  554.4915m  463.2525m
  gm         8.8635u    4.6378u    4.6575u    5.2879u    5.3107u    1.3156u
  gds       81.4959n  129.6083n  130.1775n   89.1796n   89.1632n   40.3906n
  gmb        2.0315u    1.0380u    1.0423u    1.5174u    1.5237u  313.4577n
  cdtot     80.0152f   10.1869f   10.2008f   11.5965f   11.5753f   30.8892f
  cgtot     72.8482f    6.9074f    6.9068f    7.0242f    7.0242f   15.2971f
  cstot    102.5259f   17.0945f   17.0945f   12.7039f   12.7039f   37.4431f
  cbtot    209.9321f   26.8322f   26.8455f   24.2774f   24.2562f   67.4522f
  cgs       11.3643f    1.8391f    1.8391f    1.7618f    1.7618f    4.0443f
  cgd       11.3643f    1.8391f    1.8391f    1.7618f    1.7618f    4.0443f



 subckt                                                                    
 element  0:m1pb     0:m2pa     0:m2pb     0:m3n      0:m4n      0:mc0     
 model    0:pch.3    0:pch.3    0:pch.3    0:nch.3    0:nch.3    0:pch.3   
 region       Cutoff     Cutoff     Cutoff     Cutoff     Cutoff     Cutoff
  id       -52.8745n  -53.1619n  -53.1610n   52.8051n   63.1386n -499.9916n
  ibs      1.047e-20  1.053e-20  1.053e-20 -8.447e-20 -1.010e-19  1.004e-19
  ibd        2.0318f    2.0318f    2.0318f  -67.3064p  -21.2507p    3.3314f
  vgs     -529.5294m -529.5294m -522.4291m  392.4538m  402.4515m -599.3222m
  vds     -529.5294m -536.6298m -772.8990m    2.2409     1.9905  -599.3222m
  vbs        0.         0.         0.         0.         0.         0.     
  vth     -716.1660m -715.9753m -709.6296m  556.4238m  558.2958m -719.8247m
  vdsat    -45.8244m  -45.8276m  -45.8147m   43.1531m   43.2600m  -48.9331m
  vod      186.6366m  186.4459m  187.2005m -163.9699m -155.8442m  120.5025m
  beta       2.7929m    2.7930m    2.7984m    2.8183m    2.8177m    4.3353m
  gam eff  463.2525m  463.2525m  463.2525m  557.3611m  557.3611m  455.2807m
  gm         1.3156u    1.3226u    1.3233u    1.4313u    1.7015u   11.5078u
  gds       40.3906n   40.5450n   39.1140n   19.2807n   23.1155n  354.1031n
  gmb      313.4577n  315.0695n  315.4373n  410.0695n  487.2888n    2.5757u
  cdtot     30.8892f   30.8247f   28.9001f    5.6090f    5.7027f   50.7212f
  cgtot     15.2971f   15.2971f   15.3207f    4.1951f    4.1873f   24.5798f
  cstot     37.4431f   37.4431f   37.4431f    7.4453f    7.4453f   62.7138f
  cbtot     67.4522f   67.3876f   65.4867f   13.0657f   13.1516f  112.1386f
  cgs        4.0443f    4.0443f    4.0443f    1.0459f    1.0459f    6.4691f
  cgd        4.0443f    4.0443f    4.0443f    1.0459f    1.0459f    6.4691f



 subckt                                   
 element  0:mc1      0:mc2      0:mc3     
 model    0:pch.3    0:pch.6    0:nch.3   
 region       Cutoff   Saturati     Cutoff
  id      -374.7296n -374.7388n  374.7377n
  ibs      7.527e-20  8.207e-20 -5.981e-19
  ibd        2.4938p  115.9258a  -21.5264f
  vgs     -599.3222m -775.2674m  449.9268m
  vds       -2.0748  -775.2674m  449.9268m
  vbs        0.         0.         0.     
  vth     -679.8662m -745.3677m  569.8638m
  vdsat    -53.6544m -102.1390m   44.1177m
  vod       80.5440m  -29.8997m -119.9370m
  beta       1.2523m  106.3096u    8.6184m
  gam eff  455.2808m  408.2469m  557.6573m
  gm         8.2520u    5.5740u    9.8278u
  gds      233.0318n  163.2106n  161.9936n
  gmb        1.8089u    1.1767u    2.8253u
  cdtot     10.8352f    1.8946f   20.5427f
  cgtot      7.0228f  969.8884a   12.6943f
  cstot     17.9182f    2.6998f   22.7458f
  cbtot     28.3830f    4.3941f   43.1839f
  cgs        1.8483f  388.9027a    3.1997f
  cgd        1.8483f  192.1500a    3.1997f




          ***** job concluded
1****** HSPICE -- B-2008.09 32-BIT (Aug 26 2008) winnt ******                   
 ******  
 ***myop_2stage

  ******  job statistics summary tnom=  25.000 temp=  25.000 *****

  ******  HSPICE Threads Information  ******
  Command Line Threads Count:                      0
  Available CPU Count:                             4
  Actual Model Evaluation(Load) Threads Count:     1
  Actual Solver Threads Count:                     1


  ******  Circuit Statistics  ******
  # nodes       =      49  # elements   =      28
  # resistors   =       3  # capacitors =       1  # inductors   =       0
  # mutual_inds =       0  # vccs       =       0  # vcvs        =       0
  # cccs        =       0  # ccvs       =       0  # volt_srcs   =       7
  # curr_srcs   =       2  # diodes     =       0  # bjts        =       0
  # jfets       =       0  # mosfets    =      15  # U elements  =       0
  # T elements  =       0  # W elements =       0  # B elements  =       0
  # S elements  =       0  # P elements =       0  # va device   =       0


  ******  Runtime Statistics (seconds)  ******

  analysis           time    # points   tot. iter  conv.iter
  op point           0.04           1         274
  dc sweep           0.04         201         471
  readin             0.13
  errchk             0.02
  setup              0.01
  output             0.00


           total memory used          369  kbytes
           total cpu time            0.26 seconds
           total elapsed time           1 seconds
           job started at     16:36:08 01/03/2016
           job ended   at     16:36:08 01/03/2016


 Init: hspice initialization file: C:\synopsys\Hspice_B-2008.09\hspice.ini
