 ****** HSPICE -- B-2008.09 32-BIT (Aug 26 2008) winnt ******                   
  Copyright (C) 2008 Synopsys, Inc. All Rights Reserved.                        
  Unpublished-rights reserved under US copyright laws.
  This program is protected by law and is subject to the 
  terms and conditions of the license agreement from Synopsys.
  Use of this program is your acceptance to be bound by the 
  license agreement. HSPICE is the trademark of Synopsys, Inc.
  Input File: c:\users\timer\documents\github\hspice\op\035\subvthop_twostage\my
 Init: read install configuration file: C:\synopsys\Hspice_B-2008.09\meta.cfg
 Init: hspice initialization file: C:\synopsys\Hspice_B-2008.09\hspice.ini




 .option post acout=0 accurate=1 dcon=1 converge=1 gmindc=1.0000e-12 captab=1
 *.option dccap=1 accurate=1 post

 ***param***
 .param
 +comon		= 2
 +bias			= 2.7
 +bias2		= 0.45
 +supplyp	= 3.3
 +supplyn	= 0
 +diff			= 0
 ***netlist***
 ***1st stage***
 mb	b	b0	vdd	vdd	pch	w = 31u  l = 1u	  m = 2
 m1	1	vinn	b		b		pch	w = 10u l = 0.4u m = 1
 m2	2	vinp	b		b		pch	w = 10u l = 0.4u m = 1
 m3	1	b1		vss	vss	nch	w = 2.8u l = 0.4u m = 2
 m4	2	b1		vss	vss	nch	w = 2.8u l = 0.4u m = 2

 **low f gain = 34.5db
 * for subthreshold diffpair. gain do little with id. it is more related to leff and vds of output mos(about output resistance)
 * gds is proportional to 1/leff & vds
 *kappa ~= 0.7

 ***2nd stage***
 *m3	von	1		vdd	vdd	pch	w = 18u    l = 1u   m = 1
 *m4	vop	2		vdd	vdd	pch w = 3.88u 	 l = 0.4u m = 1
 *m7	von	von	vss	vss	nch	w = 3.8u   l = 1u   m = 1
 *m8	vop	von	vss	vss	nch	w = 1.1u   l = 0.4u m = 1

 ***compensation***
 *
 *c1	z1		von 400f
 *rz1	z1		1   350k
 *c2	2			vop 300f


 ***source***
 vd		vdd 	gnd dc supplyp
 vs		vss 	gnd dc supplyn
 vb 		b0		gnd dc bias
 vb1		b1		gnd dc bias2


 ***input***
 vinp vinp gnd dc = 'comon+diff' *ac = 1
 vinn vinn gnd dc = 'comon-diff' ac = 1






 ***test
 *mt	vdt	vgt	vss	vss	nch	w = 2.7u   l = 0.5u m = 1
 mt	vdt	vgt	vdd	vdd	pch w = 9.7u l = 0.5u m = 1

 vtd	vdt	gnd dc = '1-499.7048m'
 vtg	vgt	gnd dc = '1-397.6836m'

 ***






 .op

 ***sweep***
 .dc diff -0.5 0.5 0.01
 ***probe&measuring***
 .ac dec 1000 10 1g
 *.tf v(1) vinp
 *.pz v(vop) vinp
 .probe dc i(m1) i(m2)	i(mt)
 .probe ac cap(von)
 +gain1st=par('vdb(2, 1)-vdb(vinp,vinn)')	par('i(m1)-i(m2)')	phase1st=par('vp(2,1)')
 *+gainall=par('vdb(vop)-vdb(vinp,vinn)')		phaseall=par('vp(vop)')
 .meas ac gain max (par('vdb(vop)-vdb(vinp,vinn)'))
 *.meas ac zerodb when par('vdb(vop)-vdb(vinp,vinn)') = 1
 *.meas ac phaseatdb	find par('vp(vop)') when par('vdb(vop)-vdb(vinp,vinn)') = 1

 .noise v(1) vinn 10
 .end


 **warning**  the accurate option increases  the cpu time but the results
                are more accurate.
 ***accurate option sets default value of the options: 
 lvltim= 4         dvdt= 3       relvar= 200.00m absvar= 200.00m
     ft= 200.00m relmos=  10.00m
 (used for FFT control ) fft_accurate= 1
 

 **warning**  attempt to reference undefined node     0:von             
  in the definition of cap(von,0)
   branch - output ignored

 **warning**  attempt to reference undefined node     0:vop             
  in the definition of vdb(vop,0)
   branch - output ignored

 
      
  *** initial damped pseudo transient completed. ***
  *** final try started ***
1****** HSPICE -- B-2008.09 32-BIT (Aug 26 2008) winnt ******                   
 ******  
 ***myop_2stage

  ******  operating point information tnom=  25.000 temp=  25.000 *****
 ***** operating point status is all       simulation time is     0.     
    node    =voltage      node    =voltage      node    =voltage

 +0:1       =   1.4088  0:2       =   1.4088  0:b       =   2.5990 
 +0:b0      =   2.7000  0:b1      = 450.0000m 0:vdd     =   3.3000 
 +0:vdt     = 500.2952m 0:vgt     = 602.3164m 0:vinn    =   2.0000 
 +0:vinp    =   2.0000  0:vss     =   0.     


 maximum nodal capacitance=   3.710E-13         on node     0:vdd             

    nodal  capacitance table 

    node    =    cap      node    =    cap      node    =    cap

 +0:1       =  19.1432f 0:2       =  19.1432f 0:b       = 172.0118f
 +0:b0      =  72.8322f 0:b1      =   9.5721f 0:vdd     = 370.9905f
 +0:vdt     =   9.1699f 0:vgt     =  17.0389f 0:vinn    =   6.8678f
 +0:vinp    =   6.8678f 0:vss     =  49.8879f

 

 ****  voltage sources

 subckt                                                                    
 element  0:vd       0:vs       0:vb       0:vb1      0:vinp     0:vinn    
  volts      3.3000     0.         2.7000   450.0000m    2.0000     2.0000 
  current   -1.2923m  407.1762n    0.         0.         0.         0.     
  power      4.2647m    0.         0.         0.         0.         0.     

 subckt                        
 element  0:vtd      0:vtg     
  volts    500.2952m  602.3164m
  current    1.2919m    0.     
  power   -646.3468u    0.     

     total voltage source power dissipation=    3.6184m       watts




 **** mosfets


 subckt                                                                    
 element  0:mb       0:m1       0:m2       0:m3       0:m4       0:mt      
 model    0:pch.11   0:pch.3    0:pch.3    0:nch.3    0:nch.3    0:pch.3   
 region       Cutoff     Cutoff     Cutoff     Cutoff     Cutoff   Saturati
  id      -407.1734n -203.5857n -203.5857n  203.5820n  203.5820n   -1.2919m
  ibs      8.001e-20  4.037e-20  4.037e-20 -3.548e-19 -3.548e-19  222.9822a
  ibd        5.6318f    1.7124f    1.7124f -523.6882f -523.6882f    6.3990p
  vgs     -600.0000m -598.9656m -598.9656m  450.0000m  450.0000m   -2.6977 
  vds     -701.0344m   -1.1901    -1.1901     1.4088     1.4088    -2.7997 
  vbs        0.         0.         0.         0.         0.         0.     
  vth     -749.2833m -698.8763m -698.8763m  560.2701m  560.2701m -690.9087m
  vdsat    -52.6065m  -50.1305m  -50.1305m   44.1677m   44.1677m   -1.6224 
  vod      149.2833m   99.9107m   99.9107m -110.2701m -110.2701m   -2.0068 
  beta       3.6743m    1.2728m    1.2728m    3.0229m    3.0229m  735.0772u
  gam eff  391.6940m  462.5849m  462.5849m  545.6203m  545.6203m  432.3028m
  gm         8.9382u    4.6835u    4.6835u    5.3025u    5.3025u  924.0572u
  gds       82.8126n  134.7764n  134.7764n   76.4075n   76.4075n   69.4653u
  gmb        2.0483u    1.0470u    1.0470u    1.4892u    1.4892u  212.9463u
  cdtot     80.6051f   12.0032f   12.0032f    7.1399f    7.1399f    9.1699f
  cgtot     72.8322f    6.8678f    6.8678f    4.7860f    4.7860f   17.0389f
  cstot    102.5259f   17.0945f   17.0945f    8.8773f    8.8773f   31.9539f
  cbtot    210.5060f   28.6089f   28.6089f   16.0666f   16.0666f   26.0048f
  cgs       11.3643f    1.8391f    1.8391f    1.1842f    1.1842f   14.2707f
  cgd       11.3643f    1.8391f    1.8391f    1.1842f    1.1842f    1.7842f



1****** HSPICE -- B-2008.09 32-BIT (Aug 26 2008) winnt ******                   
 ******  
 ***myop_2stage

  ******  noise analysis tnom=  25.000 temp=  25.000 *****

     frequency =  10.0000       hz




 **** mosfet squared noise voltages (sq v/hz)




 element     0:mb
       rd  4.592e-21    
       rs   73.8820a    
       id    0.         
       rx    6.3917x    
       fn    4.4106n    
    total    4.4106n    




 element     0:m1
       rd  1.197e-20    
       rs   18.2071a    
       id    0.         
       rx    2.4225x    
       fn    3.0292n    
    total    3.0292n    




 element     0:m2
       rd  9.165e-21    
       rs   16.8335a    
       id    0.         
       rx    2.3126x    
       fn    2.7607n    
    total    2.7607n    




 element     0:m3
       rd  5.181e-20    
       rs  306.8383a    
       id    0.         
       rx    8.8140x    
       fn   33.3561n    
    total   33.3561n    




 element     0:m4
       rd  7.285e-21    
       rs   65.7135a    
       id    0.         
       rx    4.0789x    
       fn    7.1436n    
    total    7.1436n    




 element     0:mt
       rd    0.         
       rs    0.         
       id    0.         
       rx    0.         
       fn    0.         
    total    0.         




 **** total output noise voltage         =  50.7001n       sq v/hz
                                         = 225.1669u       v/rt hz
      transfer function value:
        v(1)/vinn                        =  11.3456       
      equivalent input noise at vinn                          
                                         =  19.8461u       /rt hz



 **** the results of the sqrt of integral (v**2 / freq)
      from fstart upto   10.0000       hz. using more freq points
      results in more accurate total noise values.

 **** total output noise voltage   =    0.            volts
 **** total equivalent input noise =    0.           



1****** HSPICE -- B-2008.09 32-BIT (Aug 26 2008) winnt ******                   
 ******  
 ***myop_2stage

  ******  noise analysis tnom=  25.000 temp=  25.000 *****

     frequency =  10.2329       hz




 **** mosfet squared noise voltages (sq v/hz)




 element     0:mb
       rd  4.592e-21    
       rs   73.8820a    
       id    0.         
       rx    6.3917x    
       fn    4.3102n    
    total    4.3102n    




 element     0:m1
       rd  1.197e-20    
       rs   18.2071a    
       id    0.         
       rx    2.4225x    
       fn    2.9602n    
    total    2.9602n    




 element     0:m2
       rd  9.165e-21    
       rs   16.8335a    
       id    0.         
       rx    2.3126x    
       fn    2.6978n    
    total    2.6978n    




 element     0:m3
       rd  5.181e-20    
       rs  306.8383a    
       id    0.         
       rx    8.8140x    
       fn   32.7096n    
    total   32.7096n    




 element     0:m4
       rd  7.285e-21    
       rs   65.7135a    
       id    0.         
       rx    4.0789x    
       fn    7.0052n    
    total    7.0052n    




 element     0:mt
       rd    0.         
       rs    0.         
       id    0.         
       rx    0.         
       fn    0.         
    total    0.         




 **** total output noise voltage         =  49.6830n       sq v/hz
                                         = 222.8968u       v/rt hz
      transfer function value:
        v(1)/vinn                        =  11.3456       
      equivalent input noise at vinn                          
                                         =  19.6460u       /rt hz



 **** the results of the sqrt of integral (v**2 / freq)
      from fstart upto   10.2329       hz. using more freq points
      results in more accurate total noise values.

 **** total output noise voltage   =  108.1215u       volts
 **** total equivalent input noise =    9.5298u      



1****** HSPICE -- B-2008.09 32-BIT (Aug 26 2008) winnt ******                   
 ******  
 ***myop_2stage

  ******  noise analysis tnom=  25.000 temp=  25.000 *****

     frequency =  10.4713       hz




 **** mosfet squared noise voltages (sq v/hz)




 element     0:mb
       rd  4.592e-21    
       rs   73.8820a    
       id    0.         
       rx    6.3917x    
       fn    4.2121n    
    total    4.2121n    




 element     0:m1
       rd  1.197e-20    
       rs   18.2071a    
       id    0.         
       rx    2.4225x    
       fn    2.8928n    
    total    2.8928n    




 element     0:m2
       rd  9.165e-21    
       rs   16.8335a    
       id    0.         
       rx    2.3126x    
       fn    2.6364n    
    total    2.6364n    




 element     0:m3
       rd  5.181e-20    
       rs  306.8383a    
       id    0.         
       rx    8.8140x    
       fn   32.0756n    
    total   32.0756n    




 element     0:m4
       rd  7.285e-21    
       rs   65.7135a    
       id    0.         
       rx    4.0789x    
       fn    6.8694n    
    total    6.8694n    




 element     0:mt
       rd    0.         
       rs    0.         
       id    0.         
       rx    0.         
       fn    0.         
    total    0.         




 **** total output noise voltage         =  48.6863n       sq v/hz
                                         = 220.6498u       v/rt hz
      transfer function value:
        v(1)/vinn                        =  11.3456       
      equivalent input noise at vinn                          
                                         =  19.4480u       /rt hz



 **** the results of the sqrt of integral (v**2 / freq)
      from fstart upto   10.4713       hz. using more freq points
      results in more accurate total noise values.

 **** total output noise voltage   =  153.0126u       volts
 **** total equivalent input noise =   13.4865u      



1****** HSPICE -- B-2008.09 32-BIT (Aug 26 2008) winnt ******                   
 ******  
 ***myop_2stage

  ******  noise analysis tnom=  25.000 temp=  25.000 *****

     frequency =  10.7152       hz




 **** mosfet squared noise voltages (sq v/hz)




 element     0:mb
       rd  4.592e-21    
       rs   73.8820a    
       id    0.         
       rx    6.3917x    
       fn    4.1162n    
    total    4.1162n    




 element     0:m1
       rd  1.197e-20    
       rs   18.2071a    
       id    0.         
       rx    2.4225x    
       fn    2.8270n    
    total    2.8270n    




 element     0:m2
       rd  9.165e-21    
       rs   16.8335a    
       id    0.         
       rx    2.3126x    
       fn    2.5764n    
    total    2.5764n    




 element     0:m3
       rd  5.181e-20    
       rs  306.8383a    
       id    0.         
       rx    8.8140x    
       fn   31.4539n    
    total   31.4539n    




 element     0:m4
       rd  7.285e-21    
       rs   65.7135a    
       id    0.         
       rx    4.0789x    
       fn    6.7363n    
    total    6.7363n    




 element     0:mt
       rd    0.         
       rs    0.         
       id    0.         
       rx    0.         
       fn    0.         
    total    0.         




 **** total output noise voltage         =  47.7098n       sq v/hz
                                         = 218.4257u       v/rt hz
      transfer function value:
        v(1)/vinn                        =  11.3456       
      equivalent input noise at vinn                          
                                         =  19.2519u       /rt hz



 **** the results of the sqrt of integral (v**2 / freq)
      from fstart upto   10.7152       hz. using more freq points
      results in more accurate total noise values.

 **** total output noise voltage   =  187.5310u       volts
 **** total equivalent input noise =   16.5289u      



1****** HSPICE -- B-2008.09 32-BIT (Aug 26 2008) winnt ******                   
 ******  
 ***myop_2stage

  ******  noise analysis tnom=  25.000 temp=  25.000 *****

     frequency =  10.9648       hz




 **** mosfet squared noise voltages (sq v/hz)




 element     0:mb
       rd  4.592e-21    
       rs   73.8820a    
       id    0.         
       rx    6.3917x    
       fn    4.0225n    
    total    4.0225n    




 element     0:m1
       rd  1.197e-20    
       rs   18.2071a    
       id    0.         
       rx    2.4225x    
       fn    2.7626n    
    total    2.7626n    




 element     0:m2
       rd  9.165e-21    
       rs   16.8335a    
       id    0.         
       rx    2.3126x    
       fn    2.5177n    
    total    2.5177n    




 element     0:m3
       rd  5.181e-20    
       rs  306.8383a    
       id    0.         
       rx    8.8140x    
       fn   30.8443n    
    total   30.8443n    




 element     0:m4
       rd  7.285e-21    
       rs   65.7135a    
       id    0.         
       rx    4.0789x    
       fn    6.6057n    
    total    6.6057n    




 element     0:mt
       rd    0.         
       rs    0.         
       id    0.         
       rx    0.         
       fn    0.         
    total    0.         




 **** total output noise voltage         =  46.7529n       sq v/hz
                                         = 216.2242u       v/rt hz
      transfer function value:
        v(1)/vinn                        =  11.3456       
      equivalent input noise at vinn                          
                                         =  19.0579u       /rt hz



 **** the results of the sqrt of integral (v**2 / freq)
      from fstart upto   10.9648       hz. using more freq points
      results in more accurate total noise values.

 **** total output noise voltage   =  216.6920u       volts
 **** total equivalent input noise =   19.0991u      



1****** HSPICE -- B-2008.09 32-BIT (Aug 26 2008) winnt ******                   
 ******  
 ***myop_2stage

  ******  noise analysis tnom=  25.000 temp=  25.000 *****

     frequency =  11.2202       hz




 **** mosfet squared noise voltages (sq v/hz)




 element     0:mb
       rd  4.592e-21    
       rs   73.8820a    
       id    0.         
       rx    6.3917x    
       fn    3.9310n    
    total    3.9310n    




 element     0:m1
       rd  1.197e-20    
       rs   18.2071a    
       id    0.         
       rx    2.4225x    
       fn    2.6997n    
    total    2.6997n    




 element     0:m2
       rd  9.165e-21    
       rs   16.8335a    
       id    0.         
       rx    2.3126x    
       fn    2.4604n    
    total    2.4604n    




 element     0:m3
       rd  5.181e-20    
       rs  306.8383a    
       id    0.         
       rx    8.8140x    
       fn   30.2465n    
    total   30.2465n    




 element     0:m4
       rd  7.285e-21    
       rs   65.7135a    
       id    0.         
       rx    4.0789x    
       fn    6.4777n    
    total    6.4777n    




 element     0:mt
       rd    0.         
       rs    0.         
       id    0.         
       rx    0.         
       fn    0.         
    total    0.         




 **** total output noise voltage         =  45.8153n       sq v/hz
                                         = 214.0451u       v/rt hz
      transfer function value:
        v(1)/vinn                        =  11.3456       
      equivalent input noise at vinn                          
                                         =  18.8658u       /rt hz



 **** the results of the sqrt of integral (v**2 / freq)
      from fstart upto   11.2202       hz. using more freq points
      results in more accurate total noise values.

 **** total output noise voltage   =  242.4369u       volts
 **** total equivalent input noise =   21.3683u      



1****** HSPICE -- B-2008.09 32-BIT (Aug 26 2008) winnt ******                   
 ******  
 ***myop_2stage

  ******  noise analysis tnom=  25.000 temp=  25.000 *****

     frequency =  11.4815       hz




 **** mosfet squared noise voltages (sq v/hz)




 element     0:mb
       rd  4.592e-21    
       rs   73.8820a    
       id    0.         
       rx    6.3917x    
       fn    3.8415n    
    total    3.8415n    




 element     0:m1
       rd  1.197e-20    
       rs   18.2071a    
       id    0.         
       rx    2.4225x    
       fn    2.6383n    
    total    2.6383n    




 element     0:m2
       rd  9.165e-21    
       rs   16.8335a    
       id    0.         
       rx    2.3126x    
       fn    2.4044n    
    total    2.4044n    




 element     0:m3
       rd  5.181e-20    
       rs  306.8383a    
       id    0.         
       rx    8.8140x    
       fn   29.6602n    
    total   29.6602n    




 element     0:m4
       rd  7.285e-21    
       rs   65.7135a    
       id    0.         
       rx    4.0789x    
       fn    6.3521n    
    total    6.3521n    




 element     0:mt
       rd    0.         
       rs    0.         
       id    0.         
       rx    0.         
       fn    0.         
    total    0.         




 **** total output noise voltage         =  44.8966n       sq v/hz
                                         = 211.8881u       v/rt hz
      transfer function value:
        v(1)/vinn                        =  11.3456       
      equivalent input noise at vinn                          
