 ****** HSPICE -- B-2008.09 32-BIT (Aug 26 2008) winnt ******                   
  Copyright (C) 2008 Synopsys, Inc. All Rights Reserved.                        
  Unpublished-rights reserved under US copyright laws.
  This program is protected by law and is subject to the 
  terms and conditions of the license agreement from Synopsys.
  Use of this program is your acceptance to be bound by the 
  license agreement. HSPICE is the trademark of Synopsys, Inc.
  Input File: c:\users\timer\documents\github\hspice\research\simple_wi_ota.sp  
 Init: read install configuration file: C:\synopsys\Hspice_B-2008.09\meta.cfg
 Init: hspice initialization file: C:\synopsys\Hspice_B-2008.09\hspice.ini




 .options abstol=1e-7 reltol=1e-7
 + post=1 captab accurate=1 ingold=1
 ***netlist***
 .option brief = 0
 .inc 'ota.sp'
 *otaforreaserch
 .subckt	ota	vdd	vss	winp	winn	iout

 xwlr_outter	vdd	vss	vss	wgn	wgp	iout	wlr_outter	wp = 1u	wn = 400n	mp = 2	mn = 2
 xwlr_innerp	vdd	vss	winp	wgp	ib	wlr_inner	wp = 1u wn = 400n	mp = 1 mn = 1
 xwlr_innern vdd	vss	winn	wgn	ib	wlr_inner	wp = 1u wn = 400n	mp = 1 mn = 1
 mb	ib vb vdd vdd pch w = 2u l = 200n
 xbump	ib	vss	wgp		wgn	bump	wn1 = 400n wn2 = 400n	m1 = 4 m2 = 4


 .subckt	wlr_outter	vdd	vssno	vsspo	inn	inp	iout	wp = 1.2u wn = 400n	mp = 2 mn = 2
 m1 1d 1d vdd vdd pch w = wp l = 200n m = mp
 m3 iout 1d vdd vdd pch w = wp l = 200n m = mp
 m2 1d inn vssno vssno nch w = wn l = 200n m = mn
 m4 iout inp vsspo vsspo nch w = wn l = 200n m = mn
 .ends

 .subckt wlr_inner vdd vss win wg ib	wp = 1.2u wn = 400n	mp = 1 mn = 1
 ms sd sd ib ib pch w = wp l = 200n	m = mp
 mw wg wg sd win pch w = wp l = 200n	m = mp
 mgm wg wg vss vss nch w = wn l = 200n	m = mn
 .ends

 .subckt bump ib vss wgp wgn wn1 = 400n wn2 = 400n	m1 = 4 m2 = 4
 mb1 ib wgn 1 vss nch w = wn1 l = 200n m = m1
 mb2 1 wgp vss vss nch w = wn2 l = 200n m = m2
 .ends

 .ends



 .option brief = 0

 xota vdd	vss	winp	winn	iout	ota

 vref	winn	gnd dc = 0.2v
 v1	winp	inx dc = 0v

 vd	vdd	gnd	dc = 1.8v
 vs	vss	gnd	dc = 0v
 *
 ib		gnd	inx	dc = 1u
 g1		inx	gnd	vccs	vin	gnd	'10^-7'
 vi		vin gnd dc = 1.2
 ef		vg	gnd	opamp	vr	iout
 vr		vr	gnd dc = 0.9v
 mo	inx	inx	gnd	gnd	nch	w = 2.6u	l = 200n	m = 20
 mnw	inx	vg	gnd	gnd	nch	w = 10u	l = 200n	m = 10

 mt	vdt	vdt	vss	vss	nch	w = 2.6u	l = 200n	m = 20
 vtd	vdt	gnd	dc = 0.2v


 ***
 .op
 *.dc vi dec 10	0.1	10
 .probe dc i(mt)


 **warning**  the accurate option increases  the cpu time but the results
                are more accurate.
 ***accurate option sets default value of the options: 
 lvltim= 4         dvdt= 3       relvar= 200.00m absvar= 200.00m
     ft= 200.00m relmos=  10.00m
 (used for FFT control ) fft_accurate= 1
1****** HSPICE -- B-2008.09 32-BIT (Aug 26 2008) winnt ******                   
 ******  
 *simple_wi_ota.sp

  ******  circuit name directory
 circuit number to circuit name directory
   number circuitname                     definition         multiplier
        0 main circuit
        1 xota.                           ota                1.00 
        2 xota.xwlr_outter.               wlr_outter         1.00 
        3 xota.xwlr_innerp.               wlr_inner          1.00 
        4 xota.xwlr_innern.               wlr_inner          1.00 
        5 xota.xbump.                     bump               1.00 
 

 
      
  Opening plot unit= 79
 file=c:\users\timer\documents\github\hspice\research\simple_wi_ota.pa0        


 **diagnostic** rebuilding matrix with pivot option


 **diagnostic** rebuilding matrix without pivot option


 **diagnostic** dc convergence failure, 
 resetting dcon option to 1 and retrying

 no convergence with standard algorithm,  trying damped pseudo-transient

 **diagnostic** number of iteration exceeds min(7000, 20*itl1)=  4000 in pseudo
 tran process (converge=1 process). Usually this happens when the
 models are discontinous, or there are uninitialized bi-stable cells
 (flip-flop) in the circuit. By setting options dcon=-1 and converge=-1
 you can disable auto convergence process. Retry the run, non-convergence
 diagnostics will provide useful information about the nodes and devices
 which can be used to work around the non-convergence problems.
  *** gshunt ramping started *** 
  **diagnostic** gshunt ramping failed 

 trying gmath ramping method


 **diagnostic** no convergence in gmath method gmath=   6.047E-05



 **error** no convergence in operating point





 ***
 *** hspice diagnostic ***
     nonconvergent voltage failures=    25
     nonconvergent element current failures=     0
 ***
1****** HSPICE -- B-2008.09 32-BIT (Aug 26 2008) winnt ******                   
 ******  
 *simple_wi_ota.sp

  ******  operating point information tnom=  25.000 temp=  25.000 *****
 ***** operating point status is debug     simulation time is     0.     
    node    =voltage      node    =voltage      node    =voltage

 +0:inx     =  -0.2356  0:iout    =   1.8002  0:vdd     =   1.8000 
 +0:vdt     =   0.2000  0:vg      =-9.002e+14 0:vin     =   1.2000 
 +0:vr      =   0.9000  0:vss     =   0.      0:winn    =   0.2000 
 +0:winp    =  -0.2356  1:ib      =   1.6761  1:vb      =   0.     
 +1:wgn     =   0.5417  1:wgp     =  -0.1219  2:1d      =   1.1656 
 +3:sd      =   0.5475  4:sd      =   0.9390  5:1       =   0.3662 




     hspice diagnostic for nonconvergent nodes and elements


                        node    subcircuit       old       new      error 
                        name    definition    voltage   voltage   tolerance
                          (inx) main_ckt      -0.236     -0.276   809.750 
                           (vg) main_ckt    -9.00e+14   -19.334   9.99e+03
                         (winp) main_ckt      -0.236     -0.276   809.750 
                      (xota.ib) ota            1.676      1.672    74.484 
                     (xota.wgn) ota            0.542      0.543    29.219 
                     (xota.wgp) ota           -0.122     -0.147   503.194 
          (xota.xwlr_outter.1d) wlr_outter     1.166      1.164    31.884 
          (xota.xwlr_innerp.sd) wlr_inner      0.547      0.527   409.314 
          (xota.xwlr_innern.sd) wlr_inner      0.939      0.939     9.915 
                        (mo:id) main_ckt      -0.236     -0.276   809.750 
                       (mnw:id) main_ckt      -0.236     -0.276   809.750 
                   (xota.mb:id) ota            1.676      1.672    74.449 
       (xota.xwlr_outter.m1:id) wlr_outter     1.166      1.164    31.881 
       (xota.xwlr_outter.m2:id) wlr_outter     1.166      1.164    31.889 
       (xota.xwlr_innerp.ms:id) wlr_inner      0.548      0.527   409.237 
       (xota.xwlr_innerp.ms:is) wlr_inner      1.676      1.672    74.566 
       (xota.xwlr_innerp.mw:id) wlr_inner     -0.122     -0.147   503.182 
       (xota.xwlr_innerp.mw:is) wlr_inner      0.547      0.527   409.387 
      (xota.xwlr_innerp.mgm:id) wlr_inner     -0.122     -0.147   503.207 
       (xota.xwlr_innern.ms:id) wlr_inner      0.939      0.939     9.909 
       (xota.xwlr_innern.ms:is) wlr_inner      1.676      1.672    74.472 
       (xota.xwlr_innern.mw:id) wlr_inner      0.542      0.543    29.220 
       (xota.xwlr_innern.mw:is) wlr_inner      0.939      0.939     9.916 
      (xota.xwlr_innern.mgm:id) wlr_inner      0.542      0.543    29.217 
            (xota.xbump.mb1:id) bump           1.676      1.672    74.484 

 maximum nodal capacitance=    0.00             on node     0:0               

    nodal  capacitance table 

    node    =    cap      node    =    cap      node    =    cap

 +0:inx     =   0.      0:iout    =   0.      0:vdd     =   0.     
 +0:vdt     =   0.      0:vg      =   0.      0:vin     =   0.     
 +0:vr      =   0.      0:vss     =   0.      0:winn    =   0.     
 +0:winp    =   0.      1:ib      =   0.      1:vb      =   0.     
 +1:wgn     =   0.      1:wgp     =   0.      2:1d      =   0.     
 +3:sd      =   0.      4:sd      =   0.      5:1       =   0.     

 
     total voltage source power dissipation=  1.693e-04       watts




 **** mosfets



          ***** job aborted
1****** HSPICE -- B-2008.09 32-BIT (Aug 26 2008) winnt ******                   
 ******  
 *simple_wi_ota.sp

  ******  job statistics summary tnom=  25.000 temp=  25.000 *****

  ******  HSPICE Threads Information  ******
  Command Line Threads Count:                      0
  Available CPU Count:                             4
  Actual Model Evaluation(Load) Threads Count:     1
  Actual Solver Threads Count:                     1


  ******  Circuit Statistics  ******
  # nodes       =      52  # elements   =      27
  # resistors   =       0  # capacitors =       0  # inductors   =       0
  # mutual_inds =       0  # vccs       =       1  # vcvs        =       1
  # cccs        =       0  # ccvs       =       0  # volt_srcs   =       8
  # curr_srcs   =       1  # diodes     =       0  # bjts        =       0
  # jfets       =       0  # mosfets    =      16  # U elements  =       0
  # T elements  =       0  # W elements =       0  # B elements  =       0
  # S elements  =       0  # P elements =       0  # va device   =       0


  ******  Runtime Statistics (seconds)  ******

  analysis           time    # points   tot. iter  conv.iter
  op point           1.02           1       11058
  readin             0.20
  errchk             0.02
  setup              0.01
  output             0.00


           total memory used          525  kbytes
           total cpu time            1.28 seconds
           total elapsed time           1 seconds
           job started at     22:22:02 11/22/2015
           job ended   at     22:22:03 11/22/2015


 Init: hspice initialization file: C:\synopsys\Hspice_B-2008.09\hspice.ini
