 ****** HSPICE -- B-2008.09 32-BIT (Aug 26 2008) winnt ******                   
  Copyright (C) 2008 Synopsys, Inc. All Rights Reserved.                        
  Unpublished-rights reserved under US copyright laws.
  This program is protected by law and is subject to the 
  terms and conditions of the license agreement from Synopsys.
  Use of this program is your acceptance to be bound by the 
  license agreement. HSPICE is the trademark of Synopsys, Inc.
  Input File: c:\users\timer\documents\github\hspice\research\simple_wi_ota.sp  
 Init: read install configuration file: C:\synopsys\Hspice_B-2008.09\meta.cfg
 Init: hspice initialization file: C:\synopsys\Hspice_B-2008.09\hspice.ini




 .options abstol=1e-7 reltol=1e-7
 + post=1 captab accurate=1 ingold=1
 ***netlist***
 .option brief = 0
 .inc 'ota.sp'
 *otaforreaserch
 .subckt	ota	vdd	vss	winp	winn	iout	vb

 xwlr_outter	vdd	vss	vss	wgn	wgp	iout	wlr_outter	wp = 1u	wn = 400n	mp = 2	mn = 2
 xwlr_innerp	vdd	vss	winp	wgp	ib	wlr_inner	wp = 1u wn = 400n	mp = 1 mn = 1
 xwlr_innern vdd	vss	winn	wgn	ib	wlr_inner	wp = 1u wn = 400n	mp = 1 mn = 1
 mb	ib vb vdd vdd pch w = 2u l = 200n
 xbump	ib	vss	wgp		wgn	bump	wn1 = 400n wn2 = 400n	m1 = 4 m2 = 4


 .subckt	wlr_outter	vdd	vssno	vsspo	inn	inp	iout	wp = 1.2u wn = 400n	mp = 2 mn = 2
 m1 1d 1d vdd vdd pch w = wp l = 200n m = mp
 m3 iout 1d vdd vdd pch w = wp l = 200n m = mp
 m2 1d inn vssno vssno nch w = wn l = 200n m = mn
 m4 iout inp vsspo vsspo nch w = wn l = 200n m = mn
 .ends

 .subckt wlr_inner vdd vss win wg ib	wp = 1.2u wn = 400n	mp = 1 mn = 1
 ms sd sd ib ib pch w = wp l = 200n	m = mp
 mw wg wg sd win pch w = wp l = 200n	m = mp
 mgm wg wg vss vss nch w = wn l = 200n	m = mn
 .ends

 .subckt bump ib vss wgp wgn wn1 = 400n wn2 = 400n	m1 = 4 m2 = 4
 mb1 ib wgn 1 vss nch w = wn1 l = 200n m = m1
 mb2 1 wgp vss vss nch w = wn2 l = 200n m = m2
 .ends

 .ends



 .option brief = 0

 xota vdd	vss	winp	winn	iout	vb	ota

 v1	winp	inx dc = 0v

 mb		inx	vbm	vdd		vdd	pch	w = 4u	l = 200n	m = 1
 *mi	inx	inx	vss	vss	nch	w = 10u	l = 200n	m = 10
 mnw	inx	vg	nms	nms	nch	w = 2.6u	l = 200n	m = 4
 vnms	nms	gnd dc = 0.5

 ***ota	bias***
 vref	winn	gnd dc = 0.9v
 vd	vdd	gnd	dc = 1.8v
 vs	vss	gnd	dc = 0v
 vbo	vb	gnd	dc = 1.5v
 ***input	bias***
 vbias	vbm	gnd	dc = '1.8-0.28'


 **g1		inx	gnd	vccs	vin	gnd	'10^-7'
 *vi		vin gnd dc = 1.2
 ef		vg	gnd	opamp	vr	iout
 *d1 		vr	vo	ndio 0.4
 *ed		vg	gnd	opamp	vo	gnd
 rf		iout	vg	10x
 vr		vr		gnd dc = 0.9v
 **mo	inx	inx	gnd	gnd	nch	w = 2.6u	l = 200n	m = 20
 *rnw nws	gnd 6x

 .param wt = 4.5u
 mt	vdt	vgt	vss	vss	nch	w = wt	l = 200n	m = 1
 vtg	vgt	gnd	dc = 0.3v
 vtd	vdt	gnd	dc = 0.9v
 *mt	vdt	vdt	vss	vss	nch	w = 10u	l = 200n	m = 10	*this diode connect give id vs vdt: 1e-5_0.3365; 1e-8:0.1047
 it	gnd	vt	dc = 0.1u
 dt vt gnd	pdio 



 ***
 .op
 .dc wt	1u	10u	0.1u
 .print v(vdt)
 .probe i(mt)


 **warning**  the accurate option increases  the cpu time but the results
                are more accurate.
 ***accurate option sets default value of the options: 
 lvltim= 4         dvdt= 3       relvar= 200.00m absvar= 200.00m
     ft= 200.00m relmos=  10.00m
 (used for FFT control ) fft_accurate= 1
1****** HSPICE -- B-2008.09 32-BIT (Aug 26 2008) winnt ******                   
 ******  
 *simple_wi_ota.sp

  ******  circuit name directory
 circuit number to circuit name directory
   number circuitname                     definition         multiplier
        0 main circuit
        1 xota.                           ota                1.00 
        2 xota.xwlr_outter.               wlr_outter         1.00 
        3 xota.xwlr_innerp.               wlr_inner          1.00 
        4 xota.xwlr_innern.               wlr_inner          1.00 
        5 xota.xbump.                     bump               1.00 
 

 
      
  Opening plot unit= 79
 file=c:\users\timer\documents\github\hspice\research\simple_wi_ota.pa0        

 ******  
 *simple_wi_ota.sp

  ******  dc transfer curves tnom=  25.000 temp=  25.000 *****
x

      wt        voltage    
                    vdt    
  1.0000e-06      0.9000   
  1.1000e-06      0.9000   
  1.2000e-06      0.9000   
  1.3000e-06      0.9000   
  1.4000e-06      0.9000   
  1.5000e-06      0.9000   
  1.6000e-06      0.9000   
  1.7000e-06      0.9000   
  1.8000e-06      0.9000   
  1.9000e-06      0.9000   
  2.0000e-06      0.9000   
  2.1000e-06      0.9000   
  2.2000e-06      0.9000   
  2.3000e-06      0.9000   
  2.4000e-06      0.9000   
  2.5000e-06      0.9000   
  2.6000e-06      0.9000   
  2.7000e-06      0.9000   
  2.8000e-06      0.9000   
  2.9000e-06      0.9000   
  3.0000e-06      0.9000   
  3.1000e-06      0.9000   
  3.2000e-06      0.9000   
  3.3000e-06      0.9000   
  3.4000e-06      0.9000   
  3.5000e-06      0.9000   
  3.6000e-06      0.9000   
  3.7000e-06      0.9000   
  3.8000e-06      0.9000   
  3.9000e-06      0.9000   
  4.0000e-06      0.9000   
  4.1000e-06      0.9000   
  4.2000e-06      0.9000   
  4.3000e-06      0.9000   
  4.4000e-06      0.9000   
  4.5000e-06      0.9000   
  4.6000e-06      0.9000   
  4.7000e-06      0.9000   
  4.8000e-06      0.9000   
  4.9000e-06      0.9000   
  5.0000e-06      0.9000   
  5.1000e-06      0.9000   
  5.2000e-06      0.9000   
  5.3000e-06      0.9000   
  5.4000e-06      0.9000   
  5.5000e-06      0.9000   
  5.6000e-06      0.9000   
  5.7000e-06      0.9000   
  5.8000e-06      0.9000   
  5.9000e-06      0.9000   
  6.0000e-06      0.9000   
  6.1000e-06      0.9000   
  6.2000e-06      0.9000   
  6.3000e-06      0.9000   
  6.4000e-06      0.9000   
  6.5000e-06      0.9000   
  6.6000e-06      0.9000   
  6.7000e-06      0.9000   
  6.8000e-06      0.9000   
  6.9000e-06      0.9000   
  7.0000e-06      0.9000   
  7.1000e-06      0.9000   
  7.2000e-06      0.9000   
  7.3000e-06      0.9000   
  7.4000e-06      0.9000   
  7.5000e-06      0.9000   
  7.6000e-06      0.9000   
  7.7000e-06      0.9000   
  7.8000e-06      0.9000   
  7.9000e-06      0.9000   
  8.0000e-06      0.9000   
  8.1000e-06      0.9000   
  8.2000e-06      0.9000   
  8.3000e-06      0.9000   
  8.4000e-06      0.9000   
  8.5000e-06      0.9000   
  8.6000e-06      0.9000   
  8.7000e-06      0.9000   
  8.8000e-06      0.9000   
  8.9000e-06      0.9000   
  9.0000e-06      0.9000   
  9.1000e-06      0.9000   
  9.2000e-06      0.9000   
  9.3000e-06      0.9000   
  9.4000e-06      0.9000   
  9.5000e-06      0.9000   
  9.6000e-06      0.9000   
  9.7000e-06      0.9000   
  9.8000e-06      0.9000   
  9.9000e-06      0.9000   
  1.0000e-05      0.9000   
y
1****** HSPICE -- B-2008.09 32-BIT (Aug 26 2008) winnt ******                   
 ******  
 *simple_wi_ota.sp

  ******  operating point information tnom=  25.000 temp=  25.000 *****
 ***** operating point status is all       simulation time is     0.     
    node    =voltage      node    =voltage      node    =voltage

 +0:inx     =   0.5000  0:iout    =   0.9000  0:nms     =   0.5000 
 +0:vb      =   1.5000  0:vbm     =   1.5200  0:vdd     =   1.8000 
 +0:vdt     =   0.9000  0:vg      =   0.9770  0:vgt     =   0.3000 
 +0:vr      =   0.9000  0:vss     =   0.      0:vt      =   0.4093 
 +0:winn    =   0.9000  0:winp    =   0.5000  1:ib      =   0.8537 
 +1:wgn     =   0.2264  1:wgp     =   0.2648  2:1d      =   1.5123 
 +3:sd      =   0.5508  4:sd      =   0.5896  5:1       = 1.302e-02


 maximum nodal capacitance=   1.016E-10         on node     0:vt              

    nodal  capacitance table 

    node    =    cap      node    =    cap      node    =    cap

 +0:inx     = 2.238e-14 0:iout    = 3.773e-15 0:nms     = 4.251e-14
 +0:vb      = 2.086e-15 0:vbm     = 4.174e-15 0:vdd     = 4.138e-14
 +0:vdt     = 4.936e-15 0:vg      = 1.375e-14 0:vgt     = 5.146e-15
 +0:vr      =   0.      0:vss     = 3.873e-14 0:vt      = 1.016e-10
 +0:winn    = 2.573e-15 0:winp    = 2.907e-15 1:ib      = 1.381e-14
 +1:wgn     = 6.263e-15 1:wgp     = 6.441e-15 2:1d      = 8.239e-15
 +3:sd      = 4.214e-15 4:sd      = 4.056e-15 5:1       = 5.433e-15

 

 ****  voltage sources

 subckt                                                                    
 element  0:v1       0:vnms     0:vref     0:vd       0:vs       0:vbo     
  volts      0.         0.5000     0.9000     1.8000     0.         1.5000 
  current -1.844e-13  2.248e-08 -9.840e-13 -6.849e-08  2.661e-07    0.     
  power      0.      -1.124e-08  8.856e-13  1.233e-07    0.         0.     

 subckt                                              
 element  0:vbias    0:vr       0:vtg      0:vtd     
  volts      1.5200     0.9000     0.3000     0.9000 
  current    0.         0.         0.      -2.162e-07
  power      0.         0.         0.       1.946e-07

     total voltage source power dissipation=  3.067e-07       watts



 ***** current sources

 subckt             
 element  0:it      
  volts     -0.4093 
  current  1.000e-07
  power    4.093e-08


     total current source power dissipation= 4.093e-08       watts

 **** resistors

 subckt             
 element  0:rf      
  r value  1.000e+07
  v drop  -7.700e-02
  current -7.700e-09
  power    5.928e-10


 **** voltage-controlled voltage sources


 subckt             
 element  0:ef      
  volts      0.9770 
  current -7.700e-09




 **** diodes


 subckt             
 element  0:dt      
 model    0:pdio    
  id       1.000e-07
  vd         0.4093 
  req      2.643e+05
  cap      1.016e-10





 **** mosfets


 subckt                                    xota       xota.xwlr_ xota.xwlr_
 element  0:mb       0:mnw      0:mt       1:mb       2:m1       2:m3      
 model    0:pch.8    0:nch.8    0:nch.8    0:pch.8    0:pch.12   0:pch.12  
 region       Cutoff     Cutoff     Cutoff     Cutoff     Cutoff     Cutoff
  id      -2.667e-08  2.248e-08  2.162e-07 -1.885e-08 -9.651e-09 -1.332e-08
  ibs      4.096e-24 -4.148e-24 -3.775e-23  3.148e-24  1.872e-24  2.583e-24
  ibd      3.447e-15 -6.405e-20 -1.162e-13  7.495e-18  6.920e-18  7.191e-18
  vgs       -0.2800     0.4770     0.3000    -0.3000    -0.2877    -0.2877 
  vds       -1.3000   4.543e-05    0.9000    -0.9463    -0.2877    -0.9000 
  vbs        0.         0.         0.         0.         0.         0.     
  vth       -0.4982     0.5198     0.5129    -0.4991    -0.5011    -0.4989 
  vdsat   -4.194e-02  5.524e-02  4.067e-02 -4.177e-02 -4.120e-02 -4.125e-02
  vod        0.2182  -4.279e-02   -0.2129     0.1991     0.2134     0.2112 
  beta     1.886e-03  2.856e-02  1.262e-02  9.015e-04  8.469e-04  8.473e-04
  gam eff    0.6466     0.8967     0.8866     0.6449     0.6416     0.6416 
  gm       7.011e-07  3.740e-07  5.759e-06  4.946e-07  2.636e-07  3.552e-07
  gds      1.172e-08  4.946e-04  9.998e-08  8.436e-09  6.184e-09  6.189e-09
  gmb      2.394e-07  1.125e-07  1.693e-06  1.709e-07  9.279e-08  1.239e-07
  cdtot    4.577e-15  1.780e-14  4.936e-15  2.481e-15  3.006e-15  2.648e-15
  cgtot    4.174e-15  1.375e-14  5.146e-15  2.086e-15  2.093e-15  2.093e-15
  cstot    5.989e-15  1.734e-14  6.041e-15  3.094e-15  3.284e-15  3.285e-15
  cbtot    9.491e-15  2.517e-14  9.520e-15  5.039e-15  5.779e-15  5.421e-15
  cgs      1.316e-15  5.277e-15  1.655e-15  6.584e-16  6.524e-16  6.531e-16
  cgd      1.309e-15  5.020e-15  1.647e-15  6.527e-16  6.494e-16  6.494e-16



 subckt   xota.xwlr_ xota.xwlr_ xota.xwlr_ xota.xwlr_ xota.xwlr_ xota.xwlr_
 element  2:m2       2:m4       3:ms       3:mw       3:mgm      4:ms      
 model    0:nch.16   0:nch.16   0:pch.12   0:pch.12   0:nch.16   0:pch.12  
 region       Cutoff     Cutoff     Cutoff     Cutoff     Cutoff     Cutoff
  id       9.644e-09  2.135e-08 -7.346e-09 -7.346e-09  7.346e-09 -2.470e-09
  ibs     -3.033e-24 -6.713e-24  1.425e-24 -2.148e-17 -2.310e-24  4.790e-25
  ibd     -2.360e-12 -1.073e-14  3.460e-18  3.460e-18 -2.376e-18  3.460e-18
  vgs        0.2264     0.2648    -0.3029    -0.2860     0.2648    -0.2641 
  vds        1.5123     0.9000    -0.3029    -0.2860     0.2648    -0.2641 
  vbs        0.         0.         0.      -5.075e-02    0.         0.     
  vth        0.5189     0.5203    -0.5011    -0.4842     0.5218    -0.5012 
  vdsat    4.456e-02  4.468e-02 -4.138e-02 -4.111e-02  4.467e-02 -4.102e-02
  vod       -0.2925    -0.2555     0.1982     0.1983    -0.2570     0.2372 
  beta     2.277e-03  2.277e-03  4.234e-04  4.256e-04  1.139e-03  4.234e-04
  gam eff    0.9023     0.9023     0.6416     0.6417     0.9023     0.6416 
  gm       2.684e-07  5.766e-07  1.968e-07  1.961e-07  1.988e-07  6.921e-08
  gds      3.707e-09  1.010e-08  4.504e-09  4.548e-09  6.066e-09  1.698e-09
  gmb      7.655e-08  1.657e-07  6.904e-08  6.507e-08  5.823e-08  2.449e-08
  cdtot    1.048e-15  1.124e-15  1.497e-15  1.524e-15  6.314e-16  1.512e-15
  cgtot    9.277e-16  9.232e-16  1.045e-15  1.054e-15  4.616e-16  1.049e-15
  cstot    1.364e-15  1.365e-15  1.643e-15  1.672e-15  6.824e-16  1.641e-15
  cbtot    2.184e-15  2.256e-15  2.881e-15  2.907e-15  1.197e-15  2.902e-15
  cgs      2.890e-16  2.892e-16  3.271e-16  3.678e-16  1.446e-16  3.254e-16
  cgd      2.888e-16  2.888e-16  3.247e-16  3.247e-16  1.444e-16  3.247e-16



 subckt   xota.xwlr_ xota.xwlr_ xota.xbump xota.xbump
 element  4:mw       4:mgm      5:mb1      5:mb2     
 model    0:pch.12   0:nch.16   0:nch.16   0:nch.16  
 region       Cutoff     Cutoff     Cutoff     Cutoff
  id      -2.470e-09  2.471e-09  9.025e-09  9.028e-09
  ibs      3.460e-18 -7.770e-25 -3.779e-18 -2.839e-24
  ibd      3.460e-18 -2.376e-18 -1.553e-15 -3.779e-18
  vgs       -0.3632     0.2264     0.2134     0.2648 
  vds       -0.3632     0.2264     0.8407   1.302e-02
  vbs        0.3104     0.      -1.302e-02    0.     
  vth       -0.5993     0.5219     0.5241     0.5224 
  vdsat   -4.236e-02  4.456e-02  4.457e-02  4.467e-02
  vod        0.2361    -0.2955    -0.3107    -0.2576 
  beta     4.095e-04  1.139e-03  4.553e-03  4.554e-03
  gam eff    0.6410     0.9023     0.9036     0.9023 
  gm       7.046e-08  6.891e-08  2.541e-07  2.439e-07
  gds      1.643e-09  2.248e-09  4.446e-09  5.686e-07
  gmb      2.139e-08  2.042e-08  7.355e-08  7.222e-08
  cdtot    1.379e-15  6.375e-16  2.264e-15  2.717e-15
  cgtot    9.997e-16  4.639e-16  1.855e-15  1.847e-15
  cstot    1.495e-15  6.822e-16  2.716e-15  2.730e-15
  cbtot    2.573e-15  1.206e-15  4.525e-15  4.980e-15
  cgs      3.254e-16  1.445e-16  5.778e-16  5.783e-16
  cgd      3.247e-16  1.444e-16  5.776e-16  5.778e-16




          ***** job concluded
1****** HSPICE -- B-2008.09 32-BIT (Aug 26 2008) winnt ******                   
 ******  
 *simple_wi_ota.sp

  ******  job statistics summary tnom=  25.000 temp=  25.000 *****

  ******  HSPICE Threads Information  ******
  Command Line Threads Count:                      0
  Available CPU Count:                             4
  Actual Model Evaluation(Load) Threads Count:     1
  Actual Solver Threads Count:                     1


  ******  Circuit Statistics  ******
  # nodes       =      56  # elements   =      31
  # resistors   =       1  # capacitors =       0  # inductors   =       0
  # mutual_inds =       0  # vccs       =       0  # vcvs        =       1
  # cccs        =       0  # ccvs       =       0  # volt_srcs   =      11
  # curr_srcs   =       1  # diodes     =       1  # bjts        =       0
  # jfets       =       0  # mosfets    =      16  # U elements  =       0
  # T elements  =       0  # W elements =       0  # B elements  =       0
  # S elements  =       0  # P elements =       0  # va device   =       0


  ******  Runtime Statistics (seconds)  ******

  analysis           time    # points   tot. iter  conv.iter
  op point           0.01           1          32
  dc sweep           0.07          91         212
  readin             0.19
  errchk             0.02
  setup              0.02
  output             0.00


           total memory used          529  kbytes
           total cpu time            0.32 seconds
           total elapsed time           1 seconds
           job started at     22:11:48 11/23/2015
           job ended   at     22:11:48 11/23/2015


 Init: hspice initialization file: C:\synopsys\Hspice_B-2008.09\hspice.ini
