 ****** HSPICE -- B-2008.09 32-BIT (Aug 26 2008) winnt ******                   
  Copyright (C) 2008 Synopsys, Inc. All Rights Reserved.                        
  Unpublished-rights reserved under US copyright laws.
  This program is protected by law and is subject to the 
  terms and conditions of the license agreement from Synopsys.
  Use of this program is your acceptance to be bound by the 
  license agreement. HSPICE is the trademark of Synopsys, Inc.
  Input File: c:\users\timer\documents\github\hspice\035lib\researchtest.sp     
 Init: read install configuration file: C:\synopsys\Hspice_B-2008.09\meta.cfg
 Init: hspice initialization file: C:\synopsys\Hspice_B-2008.09\hspice.ini




 .options abstol=1e-7 reltol=1e-7
 + post=1 captab accurate=1 ingold=1
 ***netlist***

 mp vss vbp vdd vdd pch w = 30u l = 10u m = 3

 vd vdd gnd dc = 3.3v
 vs vss gnd dc = 0v
 .param vib = 0.7v
 vibias vbp vss dc = 0.3



 ***derivator & unit gain buffer***
 *e1 vcin gnd opamp vo vcin  max=2 min=0 1000		*unit gain buffer

 r vdd vss .22k


 ***
 .op
 .dc vs 3.3 0 0.01
 .print lx6(mp)


 **warning**  the accurate option increases  the cpu time but the results
                are more accurate.
 ***accurate option sets default value of the options: 
 lvltim= 4         dvdt= 3       relvar= 200.00m absvar= 200.00m
     ft= 200.00m relmos=  10.00m
 (used for FFT control ) fft_accurate= 1
 

 
      
 ******  
 *researchtest.sp

  ******  dc transfer curves tnom=  25.000 temp=  25.000 *****
x

        volt    lx6        
                    mp     
    3.30000       0.       
    3.29000    -2.637e-15  
    3.28000    -4.423e-15  
    3.27000    -5.634e-15  
    3.26000    -6.454e-15  
    3.25000    -7.010e-15  
    3.24000    -7.386e-15  
    3.23000    -7.641e-15  
    3.22000    -7.814e-15  
    3.21000    -7.932e-15  
    3.20000    -8.011e-15  
    3.19000    -8.065e-15  
    3.18000    -8.101e-15  
    3.17000    -8.126e-15  
    3.16000    -8.143e-15  
    3.15000    -8.154e-15  
    3.14000    -8.162e-15  
    3.13000    -8.167e-15  
    3.12000    -8.170e-15  
    3.11000    -8.173e-15  
    3.10000    -8.174e-15  
    3.09000    -8.175e-15  
    3.08000    -8.176e-15  
    3.07000    -8.177e-15  
    3.06000    -8.177e-15  
    3.05000    -8.177e-15  
    3.04000    -8.177e-15  
    3.03000    -8.178e-15  
    3.02000    -8.178e-15  
    3.01000    -8.178e-15  
    3.00000    -8.178e-15  
    2.99000    -8.178e-15  
    2.98000    -8.178e-15  
    2.97000    -8.178e-15  
    2.96000    -8.178e-15  
    2.95000    -8.178e-15  
    2.94000    -8.178e-15  
    2.93000    -8.178e-15  
    2.92000    -8.178e-15  
    2.91000    -8.178e-15  
    2.90000    -8.178e-15  
    2.89000    -8.178e-15  
    2.88000    -8.178e-15  
    2.87000    -8.178e-15  
    2.86000    -8.178e-15  
    2.85000    -8.178e-15  
    2.84000    -8.178e-15  
    2.83000    -8.178e-15  
    2.82000    -8.178e-15  
    2.81000    -8.178e-15  
    2.80000    -8.178e-15  
    2.79000    -8.178e-15  
    2.78000    -8.178e-15  
    2.77000    -8.178e-15  
    2.76000    -8.178e-15  
    2.75000    -8.178e-15  
    2.74000    -8.178e-15  
    2.73000    -8.178e-15  
    2.72000    -8.178e-15  
    2.71000    -8.178e-15  
    2.70000    -8.178e-15  
    2.69000    -8.178e-15  
    2.68000    -8.178e-15  
    2.67000    -8.178e-15  
    2.66000    -8.178e-15  
    2.65000    -8.178e-15  
    2.64000    -8.178e-15  
    2.63000    -8.178e-15  
    2.62000    -8.178e-15  
    2.61000    -8.178e-15  
    2.60000    -8.178e-15  
    2.59000    -8.178e-15  
    2.58000    -8.178e-15  
    2.57000    -8.178e-15  
    2.56000    -8.178e-15  
    2.55000    -8.178e-15  
    2.54000    -8.178e-15  
    2.53000    -8.178e-15  
    2.52000    -8.178e-15  
    2.51000    -8.178e-15  
    2.50000    -8.178e-15  
    2.49000    -8.178e-15  
    2.48000    -8.178e-15  
    2.47000    -8.178e-15  
    2.46000    -8.178e-15  
    2.45000    -8.178e-15  
    2.44000    -8.178e-15  
    2.43000    -8.178e-15  
    2.42000    -8.178e-15  
    2.41000    -8.178e-15  
    2.40000    -8.178e-15  
    2.39000    -8.178e-15  
    2.38000    -8.178e-15  
    2.37000    -8.178e-15  
    2.36000    -8.178e-15  
    2.35000    -8.178e-15  
    2.34000    -8.178e-15  
    2.33000    -8.178e-15  
    2.32000    -8.179e-15  
    2.31000    -8.179e-15  
    2.30000    -8.179e-15  
    2.29000    -8.180e-15  
    2.28000    -8.181e-15  
    2.27000    -8.182e-15  
    2.26000    -8.184e-15  
    2.25000    -8.186e-15  
    2.24000    -8.188e-15  
    2.23000    -8.191e-15  
    2.22000    -8.194e-15  
    2.21000    -8.199e-15  
    2.20000    -8.204e-15  
    2.19000    -8.210e-15  
    2.18000    -8.216e-15  
    2.17000    -8.224e-15  
    2.16000    -8.233e-15  
    2.15000    -8.244e-15  
    2.14000    -8.255e-15  
    2.13000    -8.268e-15  
    2.12000    -8.282e-15  
    2.11000    -8.297e-15  
    2.10000    -8.314e-15  
    2.09000    -8.333e-15  
    2.08000    -8.353e-15  
    2.07000    -8.374e-15  
    2.06000    -8.398e-15  
    2.05000    -8.423e-15  
    2.04000    -8.449e-15  
    2.03000    -8.478e-15  
    2.02000    -8.509e-15  
    2.01000    -8.541e-15  
    2.00000    -8.576e-15  
    1.99000    -8.612e-15  
    1.98000    -8.651e-15  
    1.97000    -8.692e-15  
    1.96000    -8.736e-15  
    1.95000    -8.782e-15  
    1.94000    -8.830e-15  
    1.93000    -8.881e-15  
    1.92000    -8.935e-15  
    1.91000    -8.991e-15  
    1.90000    -9.051e-15  
    1.89000    -9.113e-15  
    1.88000    -9.178e-15  
    1.87000    -9.247e-15  
    1.86000    -9.319e-15  
    1.85000    -9.394e-15  
    1.84000    -9.473e-15  
    1.83000    -9.555e-15  
    1.82000    -9.642e-15  
    1.81000    -9.732e-15  
    1.80000    -9.826e-15  
    1.79000    -9.924e-15  
    1.78000    -1.003e-14  
    1.77000    -1.013e-14  
    1.76000    -1.025e-14  
    1.75000    -1.036e-14  
    1.74000    -1.048e-14  
    1.73000    -1.061e-14  
    1.72000    -1.074e-14  
    1.71000    -1.088e-14  
    1.70000    -1.102e-14  
    1.69000    -1.116e-14  
    1.68000    -1.132e-14  
    1.67000    -1.148e-14  
    1.66000    -1.164e-14  
    1.65000    -1.181e-14  
    1.64000    -1.199e-14  
    1.63000    -1.218e-14  
    1.62000    -1.237e-14  
    1.61000    -1.257e-14  
    1.60000    -1.277e-14  
    1.59000    -1.299e-14  
    1.58000    -1.321e-14  
    1.57000    -1.344e-14  
    1.56000    -1.367e-14  
    1.55000    -1.392e-14  
    1.54000    -1.417e-14  
    1.53000    -1.443e-14  
    1.52000    -1.471e-14  
    1.51000    -1.499e-14  
    1.50000    -1.528e-14  
    1.49000    -1.558e-14  
    1.48000    -1.589e-14  
    1.47000    -1.621e-14  
    1.46000    -1.654e-14  
    1.45000    -1.688e-14  
    1.44000    -1.723e-14  
    1.43000    -1.760e-14  
    1.42000    -1.797e-14  
    1.41000    -1.836e-14  
    1.40000    -1.876e-14  
    1.39000    -1.917e-14  
    1.38000    -1.960e-14  
    1.37000    -2.004e-14  
    1.36000    -2.049e-14  
    1.35000    -2.095e-14  
    1.34000    -2.143e-14  
    1.33000    -2.193e-14  
    1.32000    -2.244e-14  
    1.31000    -2.296e-14  
    1.30000    -2.350e-14  
    1.29000    -2.406e-14  
    1.28000    -2.463e-14  
    1.27000    -2.522e-14  
    1.26000    -2.583e-14  
    1.25000    -2.645e-14  
    1.24000    -2.710e-14  
    1.23000    -2.776e-14  
    1.22000    -2.844e-14  
    1.21000    -2.914e-14  
    1.20000    -2.985e-14  
    1.19000    -3.059e-14  
    1.18000    -3.135e-14  
    1.17000    -3.213e-14  
    1.16000    -3.293e-14  
    1.15000    -3.376e-14  
    1.14000    -3.461e-14  
    1.13000    -3.548e-14  
    1.12000    -3.637e-14  
    1.11000    -3.729e-14  
    1.10000    -3.823e-14  
    1.09000    -3.919e-14  
    1.08000    -4.019e-14  
    1.07000    -4.121e-14  
    1.06000    -4.225e-14  
    1.05000    -4.333e-14  
    1.04000    -4.443e-14  
    1.03000    -4.556e-14  
    1.02000    -4.671e-14  
    1.01000    -4.790e-14  
    1.00000    -4.912e-14  
    0.99000    -5.037e-14  
    0.98000    -5.165e-14  
    0.97000    -5.297e-14  
    0.96000    -5.432e-14  
    0.95000    -5.570e-14  
    0.94000    -5.711e-14  
    0.93000    -5.856e-14  
    0.92000    -6.005e-14  
    0.91000    -6.157e-14  
    0.90000    -6.313e-14  
    0.89000    -6.473e-14  
    0.88000    -6.637e-14  
    0.87000    -6.804e-14  
    0.86000    -6.976e-14  
    0.85000    -7.152e-14  
    0.84000    -7.332e-14  
    0.83000    -7.516e-14  
    0.82000    -7.705e-14  
    0.81000    -7.898e-14  
    0.80000    -8.096e-14  
    0.79000    -8.298e-14  
    0.78000    -8.505e-14  
    0.77000    -8.717e-14  
    0.76000    -8.934e-14  
    0.75000    -9.155e-14  
    0.74000    -9.382e-14  
    0.73000    -9.614e-14  
    0.72000    -9.851e-14  
    0.71000    -1.009e-13  
    0.70000    -1.034e-13  
    0.69000    -1.060e-13  
    0.68000    -1.085e-13  
    0.67000    -1.112e-13  
    0.66000    -1.139e-13  
    0.65000    -1.167e-13  
    0.64000    -1.195e-13  
    0.63000    -1.224e-13  
    0.62000    -1.254e-13  
    0.61000    -1.284e-13  
    0.60000    -1.315e-13  
    0.59000    -1.346e-13  
    0.58000    -1.379e-13  
    0.57000    -1.411e-13  
    0.56000    -1.445e-13  
    0.55000    -1.479e-13  
    0.54000    -1.514e-13  
    0.53000    -1.550e-13  
    0.52000    -1.587e-13  
    0.51000    -1.624e-13  
    0.50000    -1.662e-13  
    0.49000    -1.701e-13  
    0.48000    -1.741e-13  
    0.47000    -1.782e-13  
    0.46000    -1.823e-13  
    0.45000    -1.865e-13  
    0.44000    -1.908e-13  
    0.43000    -1.952e-13  
    0.42000    -1.997e-13  
    0.41000    -2.043e-13  
    0.40000    -2.090e-13  
    0.39000    -2.137e-13  
    0.38000    -2.186e-13  
    0.37000    -2.236e-13  
    0.36000    -2.286e-13  
    0.35000    -2.338e-13  
    0.34000    -2.390e-13  
    0.33000    -2.444e-13  
    0.32000    -2.499e-13  
    0.31000    -2.555e-13  
    0.30000    -2.611e-13  
    0.29000    -2.669e-13  
    0.28000    -2.729e-13  
    0.27000    -2.789e-13  
    0.26000    -2.850e-13  
    0.25000    -2.913e-13  
    0.24000    -2.977e-13  
    0.23000    -3.042e-13  
    0.22000    -3.108e-13  
    0.21000    -3.175e-13  
    0.20000    -3.244e-13  
    0.19000    -3.314e-13  
    0.18000    -3.386e-13  
    0.17000    -3.458e-13  
    0.16000    -3.533e-13  
    0.15000    -3.608e-13  
    0.14000    -3.685e-13  
    0.13000    -3.763e-13  
    0.12000    -3.843e-13  
    0.11000    -3.924e-13  
    0.10000    -4.007e-13  
  9.0000e-02   -4.091e-13  
  8.0000e-02   -4.177e-13  
  7.0000e-02   -4.264e-13  
  6.0000e-02   -4.353e-13  
  5.0000e-02   -4.444e-13  
  4.0000e-02   -4.536e-13  
  3.0000e-02   -4.629e-13  
  2.0000e-02   -4.725e-13  
  1.0000e-02   -4.822e-13  
 -4.4409e-16   -4.921e-13  
y
1****** HSPICE -- B-2008.09 32-BIT (Aug 26 2008) winnt ******                   
 ******  
 *researchtest.sp

  ******  operating point information tnom=  25.000 temp=  25.000 *****
 ***** operating point status is all       simulation time is     0.     
    node    =voltage      node    =voltage      node    =voltage

 +0:vbp     =   0.3000  0:vdd     =   3.3000  0:vss     =   0.     


 maximum nodal capacitance=   4.392E-12         on node     0:vdd             

    nodal  capacitance table 

    node    =    cap      node    =    cap      node    =    cap

 +0:vbp     = 2.879e-12 0:vdd     = 4.392e-12 0:vss     = 7.796e-14

 

 ****  voltage sources

 subckt                                   
 element  0:vd       0:vs       0:vibias  
  volts      3.3000     0.         0.3000 
  current -1.601e-02  1.601e-02    0.     
  power    5.283e-02    0.         0.     

     total voltage source power dissipation=  5.283e-02       watts



 **** resistors

 subckt             
 element  0:r       
  r value  220.0000 
  v drop     3.3000 
  current  1.500e-02
  power    4.950e-02



 **** mosfets


 subckt             
 element  0:mp      
 model    0:pch.10  
 region     Saturati
  id      -1.010e-03
  ibs      1.961e-16
  ibd      4.921e-13
  vgs       -3.0000 
  vds       -3.3000 
  vbs        0.     
  vth       -0.7375 
  vdsat     -2.0781 
  vod       -2.2625 
  beta     4.260e-04
  gam eff    0.4048 
  gm       7.107e-04
  gds      4.481e-06
  gmb      1.791e-04
  cdtot    7.796e-14
  cgtot    2.879e-12
  cstot    3.430e-12
  cbtot    9.621e-13
  cgs      2.700e-12
  cgd      1.650e-14




          ***** job concluded
1****** HSPICE -- B-2008.09 32-BIT (Aug 26 2008) winnt ******                   
 ******  
 *researchtest.sp

  ******  job statistics summary tnom=  25.000 temp=  25.000 *****

  ******  HSPICE Threads Information  ******
  Command Line Threads Count:                      0
  Available CPU Count:                             4
  Actual Model Evaluation(Load) Threads Count:     1
  Actual Solver Threads Count:                     1


  ******  Circuit Statistics  ******
  # nodes       =       6  # elements   =       5
  # resistors   =       1  # capacitors =       0  # inductors   =       0
  # mutual_inds =       0  # vccs       =       0  # vcvs        =       0
  # cccs        =       0  # ccvs       =       0  # volt_srcs   =       3
  # curr_srcs   =       0  # diodes     =       0  # bjts        =       0
  # jfets       =       0  # mosfets    =       1  # U elements  =       0
  # T elements  =       0  # W elements =       0  # B elements  =       0
  # S elements  =       0  # P elements =       0  # va device   =       0


  ******  Runtime Statistics (seconds)  ******

  analysis           time    # points   tot. iter  conv.iter
  op point           0.01           1           6
  dc sweep           0.02         331         664
  readin             0.14
  errchk             0.01
  setup              0.02
  output             0.02


           total memory used          196  kbytes
           total cpu time            0.25 seconds
           total elapsed time           1 seconds
           job started at     01:09:53 12/16/2015
           job ended   at     01:09:53 12/16/2015


 Init: hspice initialization file: C:\synopsys\Hspice_B-2008.09\hspice.ini
