 ****** HSPICE -- B-2008.09 32-BIT (Aug 26 2008) winnt ******                   
  Copyright (C) 2008 Synopsys, Inc. All Rights Reserved.                        
  Unpublished-rights reserved under US copyright laws.
  This program is protected by law and is subject to the 
  terms and conditions of the license agreement from Synopsys.
  Use of this program is your acceptance to be bound by the 
  license agreement. HSPICE is the trademark of Synopsys, Inc.
  Input File: c:\users\timer\documents\github\hspice\researchtry\researchtry2.sp
 Init: read install configuration file: C:\synopsys\Hspice_B-2008.09\meta.cfg
 Init: hspice initialization file: C:\synopsys\Hspice_B-2008.09\hspice.ini




 .options abstol=1e-7 reltol=1e-7
 + post=1 captab accurate=1 ingold=1	dcon=1
 ***netlist***
 *.subckt ct vdd vss v1 vb vi vo

 ***derivator & unit gain buffer***

 .param rzv = 10x
 c1 inx aco 100f
 e1 aco gnd vcvs ref1 inx 1000
 vr1 ref1 gnd dc = 0
 rz inx gnd rzv
 cl aco gnd 20p

 r3 aco 2- 500g
 c2 aco 2- 25f
 e2 dco gnd vcvs ref2 2- 1000
 vr2 ref2 gnd dc = 0
 c3 2- dco 10p

 r1 dco1 3- 300k
 e3 3o gnd vcvs ref3 3- 1000
 vr3 ref3 gnd dc = 0
 r2 3o 3- 3000k
 rdc inx 3o 450x

 ef		vin	gnd	vcvs	dco gnd 1000
 ibias	gnd inx1 dc = 12n  pulse(10n 12n 10ns 1ns 1ns 48ns 100ns)
 g1		inx1	gnd	vccs	vin	gnd	10^-8


 *i1 gnd inx ac = 1
 vdco dco1 gnd ac = 1



 et	vt	gnd	vcvs	vtr1	gnd	1000
 vx	vtr gnd dc = 0.5
 rti	vtr	vtr1 100
 rt	vt	gnd	1000k

 .op
 *.dc in 0.1u 0.2u 0.01u 
 *.dc ibias 11u 10u 0.1u
 .ac dec 20 0.001 1000k 
 *.tran 1ns 100ns
 .pz v(dco) vdco 
 .probe ac vdb(dco)
 .probe tran i(ibias) 


 **warning**  the accurate option increases  the cpu time but the results
                are more accurate.
 ***accurate option sets default value of the options: 
 lvltim= 4         dvdt= 3       relvar= 200.00m absvar= 200.00m
     ft= 200.00m relmos=  10.00m
 (used for FFT control ) fft_accurate= 1
 



 **warning**  no dc path to ground from node        0:inx1             defined in subckt 0               now it is connected with gdcpath


      
1****** HSPICE -- B-2008.09 32-BIT (Aug 26 2008) winnt ******                   
 ******  
 *researchtry2.sp

  ******  operating point information tnom=  25.000 temp=  25.000 *****
 ***** operating point status is all       simulation time is     0.     
    node    =voltage      node    =voltage      node    =voltage

 +0:2-      =   0.      0:3-      =   0.      0:3o      =   0.     
 +0:aco     =   0.      0:dco     =   0.      0:dco1    =   0.     
 +0:inx     =   0.      0:inx1    = 1.200e-08 0:ref1    =   0.     
 +0:ref2    =   0.      0:ref3    =   0.      0:vin     =   0.     
 +0:vt      = 500.0000  0:vtr     =   0.5000  0:vtr1    =   0.5000 


 maximum nodal capacitance=   2.013E-11         on node     0:aco             

    nodal  capacitance table 

    node    =    cap      node    =    cap      node    =    cap

 +0:2-      = 1.002e-11 0:3-      =   0.      0:3o      =   0.     
 +0:aco     = 2.012e-11 0:dco     = 1.000e-11 0:dco1    =   0.     
 +0:inx     = 1.000e-13 0:inx1    =   0.      0:ref1    =   0.     
 +0:ref2    =   0.      0:ref3    =   0.      0:vin     =   0.     
 +0:vt      =   0.      0:vtr     =   0.      0:vtr1    =   0.     

 

 ****  voltage sources

 subckt                                                         
 element  0:vr1      0:vr2      0:vr3      0:vdco     0:vx      
  volts      0.         0.         0.         0.         0.5000 
  current    0.         0.         0.         0.         0.     
  power      0.         0.         0.         0.         0.     

     total voltage source power dissipation=    0.            watts



 ***** current sources

 subckt             
 element  0:ibias   
  volts   -1.200e-08
  current  1.200e-08
  power    1.440e-16


     total current source power dissipation= 1.440e-16       watts

 **** resistors

 subckt                                                                    
 element  0:rz       0:r3       0:r1       0:r2       0:rdc      0:rti     
  r value  1.000e+07  5.000e+11  3.000e+05  3.000e+06  4.500e+08  100.0000 
  v drop     0.         0.         0.         0.         0.         0.     
  current    0.         0.         0.         0.         0.         0.     
  power      0.         0.         0.         0.         0.         0.     

 subckt             
 element  0:rt      
  r value  1.000e+06
  v drop   500.0000 
  current  5.000e-04
  power      0.2500 


 **** voltage-controlled current sources


 subckt             
 element  0:g1      
  v drop   1.200e-08
  current    0.     




 **** voltage-controlled voltage sources


 subckt                                                         
 element  0:e1       0:e2       0:e3       0:ef       0:et      
  volts      0.         0.         0.         0.       500.0000 
  current    0.         0.         0.         0.      -5.000e-04



 ***************************************************
   ******   pole/zero analysis  
 **warning** underflow 1 time(s) in pole/zero analysis
 **warning** underflow 1 time(s) in pole/zero analysis
 **warning** underflow 1 time(s) in pole/zero analysis
 **warning** underflow 1 time(s) in pole/zero analysis
 **warning** underflow 2 time(s) in pole/zero analysis
 **warning** underflow 2 time(s) in pole/zero analysis
 **warning** underflow 2 time(s) in pole/zero analysis
 **warning** underflow 2 time(s) in pole/zero analysis
 **warning** underflow 2 time(s) in pole/zero analysis
 
 
    input =  0:vdco          output = v(dco)
 
       poles (rad/sec)                 poles ( hertz)
 real            imag            real            imag            
 0.              0.              0.              0.              
 -1.02120k       0.              -162.529        0.              
 
       zeros (rad/sec)                 zeros ( hertz)
 real            imag            real            imag            
 -80.0000        0.              -12.7324        0.              
 
  ***** constant factor = -5.48412 

          ***** job concluded
1****** HSPICE -- B-2008.09 32-BIT (Aug 26 2008) winnt ******                   
 ******  
 *researchtry2.sp

  ******  job statistics summary tnom=  25.000 temp=  25.000 *****

  ******  HSPICE Threads Information  ******
  Command Line Threads Count:                      0
  Available CPU Count:                             4
  Actual Model Evaluation(Load) Threads Count:     1
  Actual Solver Threads Count:                     1


  ******  Circuit Statistics  ******
  # nodes       =      16  # elements   =      23
  # resistors   =       7  # capacitors =       4  # inductors   =       0
  # mutual_inds =       0  # vccs       =       1  # vcvs        =       5
  # cccs        =       0  # ccvs       =       0  # volt_srcs   =       5
  # curr_srcs   =       1  # diodes     =       0  # bjts        =       0
  # jfets       =       0  # mosfets    =       0  # U elements  =       0
  # T elements  =       0  # W elements =       0  # B elements  =       0
  # S elements  =       0  # P elements =       0  # va device   =       0


  ******  Runtime Statistics (seconds)  ******

  analysis           time    # points   tot. iter  conv.iter
  op point           0.01           1         326
  ac analysis        0.05         181         181
  readin             0.20
  errchk             0.01
  setup              0.02
  output             0.00


           total memory used          176  kbytes
           total cpu time            0.32 seconds
           total elapsed time           1 seconds
           job started at     18:08:37 11/18/2015
           job ended   at     18:08:37 11/18/2015


 Init: hspice initialization file: C:\synopsys\Hspice_B-2008.09\hspice.ini
