 ****** HSPICE -- B-2008.09 32-BIT (Aug 26 2008) winnt ******                   
  Copyright (C) 2008 Synopsys, Inc. All Rights Reserved.                        
  Unpublished-rights reserved under US copyright laws.
  This program is protected by law and is subject to the 
  terms and conditions of the license agreement from Synopsys.
  Use of this program is your acceptance to be bound by the 
  license agreement. HSPICE is the trademark of Synopsys, Inc.
  Input File: c:\users\timer\documents\github\hspice\researchtry\researchtry3.sp
 Init: read install configuration file: C:\synopsys\Hspice_B-2008.09\meta.cfg
 Init: hspice initialization file: C:\synopsys\Hspice_B-2008.09\hspice.ini




 .option post acout=0 accurate dcon=1 converge=1 gmindc=   1.0000e-12 
 +captab = 1
 ***op***
 .subckt	op	vdd	vss	vinn	vinp	vop	b0	b1	
 mb	b	b0		vdd	vdd	pch	w = 10u  l = 1u	  m = 2
 m1	1	vinn	b		b		pch	w = 30u l = 0.4u m = 2
 m2	2	vinp	b		b		pch	w = 30u l = 0.4u m = 2
 m5	1	b1		vss	vss	nch	w = 13u l = 0.4u m = 1
 m6	2	b1		vss	vss	nch	w = 13u l = 0.4u m = 1
 m3	von	1		vdd	vdd	pch	w = 18u    l = 1u m = 1
 m4	vop	2		vdd	vdd	pch w = 17.83u l = 1u m = 1
 m7	von	von	vss	vss	nch	w = 3.8u   l = 1u m = 1	
 m8	vop	von	vss	vss	nch	w = 3.7u   l = 1u m = 1
 c1	z1		von 400f
 rz1	z1		1   350k
 c2	2			vop 300f
 .ends

 ***netlist***
 mp	inx	vb	vdd	vdd pch	w = 11u l = 0.2u    
 *ibi vdd	inx dc = 86.0773n
 mnw	inx	vg	vss	vss nch	w = 2.5u l = 0.2u




 xopf	vdd	vss	vinn	vinp	vop	b0	b1	op

 *** bandpass***
 *xop1	vdd	vss	vinn1	vinp1	vop1		b0	b1	op
 *ci	vinn1 	vop1   2.2p
 *cd	vop1		vinn2  220p
 *
 *xop2	vdd	vss	vinn2	vinp2	vout	b0	b1	op
 *cfd	vinn2	vout  2.2p
 *rd	vinn2	vout  47k
 *v1		vinp1	gnd dc = 0.5
 *v2		vinp2	gnd dc = 0.5
 *
 *
 ***output***



 ***param***
 .param 
 +bias			= 0.6
 +bias2		= 0.3

 ***connection source***
 *vw vinn1	inx dc = 0v			*bandpass and inx
 vx		vinp	inx dc = 0		*opf input and inx
 vy		vop		vg  dc = 0		*opf output and nw_vg

 ***source***
 vd		vdd	gnd dc = 1v
 vs		vss	gnd dc = 0v
 vbias	vb	gnd dc = 0.7v		*pmos for bias current
 vb 		b0		gnd dc bias		*op bias1
 vb1		b1		gnd dc bias2	*op bias2
 vref	vinn	gnd dc = 0.5
 *vin		vg	gnd dc = 0.3v ac = 1
 .param f = 320k
 iin	gnd inx dc = 50n ac = 1 sin(20n 10n f 1ns)

 ***polezero testing***
 cl	inx	gnd 50p
 ***
 .op
 .dc iin 1n	100n	0.1n
 .ac dec 100 10	100000g
 .probe ac vdb(inx) vdb(vg)
 .pz v(vg) iin
 .tran 10ns 100u sweep f 310k 330k 10k

 ***********************************************************************
 ** runlvl is invoked, you can disable it by:
      a) Add option runlvl=0 to your current simulation job.
      b) Copy $installdir/hspice.ini to your HOME directory and
         customize it by adding option runlvl=0, which disables
         it for all of your simulation jobs.
      c) Re-invoke $installdir/bin/config program and unselect the
         option runlvl setting in box 'hspice.ini' which disables
         it for whole group simulation jobs.

 ** runlvl is invoked, some options are ignored or automatically set:
      Options below are automatically set(user setting will overwrite them):
      if runlvl=[1|2|3|4|5|6],  .option bypass=2

      Options below are ignored, they are replaced by automated algorithms:
        lvltim    dvdt      ft    fast   trtol  absvar  relvar
          relq  chgtol    dvtr    imin    itl3    rmax

 ** runlvl is invoked, actual option value used by HSPICE are:
       runlvl= 5       bypass= 2      mbypass=   2.00   bytol= 100.00u
 ***********************************************************************

1****** HSPICE -- B-2008.09 32-BIT (Aug 26 2008) winnt ******                   
 ******  
 *researchtry3.sp

  ******  circuit name directory
 circuit number to circuit name directory
   number circuitname                     definition         multiplier
        0 main circuit
        1 xopf.                           op                 1.00 
 

 
      
  Opening plot unit= 79
 file=c:\users\timer\documents\github\hspice\researchtry\researchtry3.pa0      

  *** initial damped pseudo transient completed. ***
  *** final try started ***
1****** HSPICE -- B-2008.09 32-BIT (Aug 26 2008) winnt ******                   
 ******  
 *researchtry3.sp

  ******  operating point information tnom=  25.000 temp=  25.000 *****
 ***** operating point status is all       simulation time is     0.     
    node    =voltage      node    =voltage      node    =voltage

 +0:b0      = 600.0000m 0:b1      = 300.0000m 0:inx     = 499.9686m
 +0:vb      = 700.0000m 0:vdd     =   1.0000  0:vg      = 317.1173m
 +0:vinn    = 500.0000m 0:vinp    = 499.9686m 0:vop     = 317.1173m
 +0:vss     =   0.      1:1       = 601.5611m 1:2       = 603.0911m
 +1:b       = 797.6650m 1:von     = 399.0347m 1:z1      = 601.5611m


 maximum nodal capacitance=   5.002E-11         on node     0:inx             

    nodal  capacitance table 

    node    =    cap      node    =    cap      node    =    cap

 +0:b0      =  58.6118f 0:b1      =  37.9046f 0:inx     =  50.0171p
 +0:vb      =  11.4399f 0:vdd     = 386.8048f 0:vg      =   2.8652f
 +0:vinn    =  84.7993f 0:vinp    =  84.7991f 0:vop     = 326.4504f
 +0:vss     = 146.8606f 1:1       = 149.0740f 1:2       = 448.2949f
 +1:b       = 553.2201f 1:von     = 447.3400f 1:z1      = 400.0000f

 

 ****  voltage sources

 subckt                                                                    
 element  0:vx       0:vy       0:vd       0:vs       0:vbias    0:vb      
  volts      0.         0.         1.0000     0.       700.0000m  600.0000m
  current    0.      -444.0892a   -1.6257u    1.6757u    0.         0.     
  power      0.         0.         1.6257u    0.         0.         0.     

 subckt                        
 element  0:vb1      0:vref    
  volts    300.0000m  500.0000m
  current    0.         0.     
  power      0.         0.     

     total voltage source power dissipation=    1.6257u       watts



 ***** current sources

 subckt             
 element  0:iin     
  volts   -499.9686m
  current   50.0000n
  power     24.9984n


     total current source power dissipation=  24.9984n       watts

 **** resistors

 subckt   xopf      
 element  1:rz1     
  r value  350.0000k
  v drop     0.     
  current    0.     
  power      0.     



 **** mosfets


 subckt                         xopf       xopf       xopf       xopf      
 element  0:mp       0:mnw      1:mb       1:m1       1:m2       1:m5      
 model    0:pch.4    0:nch.8    0:pch.3    0:pch.4    0:pch.4    0:nch.4   
 region       Cutoff     Cutoff     Cutoff     Cutoff     Cutoff     Cutoff
  id       -86.0773n  136.0773n -554.8350n -277.3687n -277.4655n  277.3683n
  ibs      1.248e-23 -2.524e-23  8.073e-23  3.936e-23  3.938e-23 -4.595e-23
  ibd       28.4605a   -9.0734a   51.9013a  151.8469a  151.8424a -107.6105a
  vgs     -300.0000m  317.1173m -400.0000m -297.6650m -297.6964m  300.0000m
  vds     -500.0314m  499.9686m -202.3350m -196.1039m -194.5739m  601.5611m
  vbs        0.         0.         0.         0.         0.         0.     
  vth     -501.3812m  518.9690m -458.7427m -471.6909m -471.6921m  491.0351m
  vdsat    -42.2998m   41.1291m  -51.3038m  -41.5020m  -41.5027m   43.9133m
  vod      201.3812m -201.8516m   58.7427m  174.0259m  173.9957m -191.0351m
  beta       5.3236m    6.8709m    1.4883m   11.7361m   11.7361m   15.0987m
  gam eff  647.5761m  897.6890m  497.9476m  541.3676m  541.3676m  556.1233m
  gm         2.2897u    3.5736u   12.4563u    7.4886u    7.4909u    7.5271u
  gds       46.5823n   77.6533n   79.4965n   90.3326n   90.8501n   63.2932n
  gmb      788.8370n    1.0717u    4.0970u    2.5197u    2.5205u    2.1698u
  cdtot     14.0761f    2.9963f   27.5779f   82.0447f   82.0797f   14.6914f
  cgtot     11.4399f    2.8652f   58.6118f   84.7993f   84.7991f   18.9523f
  cstot     16.1411f    3.4298f   44.8448f   87.8160f   87.8165f   17.2107f
  cbtot     27.1844f    5.6232f   80.8326f  174.9877f  175.0221f   31.6672f
  cgs        3.6330f  920.0780a   18.8854f   20.1828f   20.1833f    4.8321f
  cgd        3.6044f  914.0402a    6.5675f   19.6732f   19.6732f    4.7623f



 subckt   xopf       xopf       xopf       xopf       xopf      
 element  1:m6       1:m3       1:m4       1:m7       1:m8      
 model    0:nch.4    0:pch.3    0:pch.3    0:nch.7    0:nch.7   
 region       Cutoff     Cutoff     Cutoff     Cutoff     Cutoff
  id       277.4651n -501.5118n -483.3143n  501.5122n  483.3150n
  ibs     -4.596e-23  7.177e-23  6.918e-23 -8.881e-23 -8.580e-23
  ibd     -111.7298a   45.9633a   45.5386a  -12.7122a  -12.4080a
  vgs      300.0000m -398.4389m -396.9089m  399.0347m  399.0347m
  vds      603.0911m -600.9653m -682.8827m  399.0347m  317.1173m
  vbs        0.         0.         0.         0.         0.     
  vth      491.0341m -458.6508m -458.6319m  483.5632m  483.5919m
  vdsat     43.9133m  -51.0039m  -50.7020m   58.1592m   58.1468m
  vod     -191.0341m   60.2119m   61.7230m  -84.5285m  -84.5572m
  beta      15.0987m    1.3402m    1.3277m    1.5707m    1.5278m
  gam eff  556.1233m  497.9476m  497.9476m  519.2085m  519.5326m
  gm         7.5297u   11.2739u   10.8924u   10.9058u   10.5163u
  gds       63.2699n   42.9882n   40.8716n   50.5853n   55.2743n
  gmb        2.1706u    3.7096u    3.5846u    3.1603u    3.0479u
  cdtot     14.6874f   22.4629f   21.9065f    4.5755f    4.5439f
  cgtot     18.9523f   52.3378f   51.5278f   10.2845f   10.0171f
  cstot     17.2107f   39.6833f   38.7573f    6.5245f    6.3555f
  cbtot     31.6631f   70.1885f   69.1727f   13.7206f   13.4553f
  cgs        4.8321f   16.5098f   15.9109f    2.4090f    2.3458f
  cgd        4.7623f    5.8996f    5.8437f    1.3906f    1.3542f



 ***************************************************
   ******   pole/zero analysis  
 
 
    input =  0:iin          output = v(vg)
 
       poles (rad/sec)                 poles ( hertz)
 real            imag            real            imag            
 19.8876k        -1.10200x       3.16521k        -175.389k       
 19.8876k        1.10200x        3.16521k        175.389k        
 -97.1411k       0.              -15.4605k       0.              
 -38.4976x       24.3204x        -6.12708x       3.87071x        
 -38.4976x       -24.3204x       -6.12708x       -3.87071x       
 -69.0469x       0.              -10.9892x       0.              
 -314.931x       0.              -50.1228x       0.              
 
       zeros (rad/sec)                 zeros ( hertz)
 real            imag            real            imag            
 -97.3552k       0.              -15.4946k       0.              
 -34.7207x       0.              -5.52596x       0.              
 -39.4388x       0.              -6.27687x       0.              
 69.0820x        59.2584x        10.9947x        9.43127x        
 69.0820x        -59.2584x       10.9947x        -9.43127x       
 -293.828x       0.              -46.7641x       0.              
 
  ***** constant factor = 4.58862g
  *** initial damped pseudo transient completed. ***
  *** final try started ***
1****** HSPICE -- B-2008.09 32-BIT (Aug 26 2008) winnt ******                   
 ******  
 *researchtry3.sp

  ******  transient analysis tnom=  25.000 temp=  25.000 *****
 ***** operating point status is voltage   simulation time is     0.     

   *** parameter f                =    3.100E+05 ***

    node    =voltage      node    =voltage      node    =voltage

 +0:b0      = 600.0000m 0:b1      = 300.0000m 0:inx     = 499.9668m
 +0:vb      = 700.0000m 0:vdd     =   1.0000  0:vg      = 307.6853m
 +0:vinn    = 500.0000m 0:vinp    = 499.9668m 0:vop     = 307.6853m
 +0:vss     =   0.      1:1       = 601.5196m 1:2       = 603.1337m
 +1:b       = 797.6641m 1:von     = 399.0772m 1:z1      = 601.5196m


 maximum nodal capacitance=   5.002E-11         on node     0:inx             

    nodal  capacitance table 

    node    =    cap      node    =    cap      node    =    cap

 +0:b0      =  58.6118f 0:b1      =  37.9046f 0:inx     =  50.0171p
 +0:vb      =  11.4399f 0:vdd     = 386.7680f 0:vg      =   2.8674f
 +0:vinn    =  84.7993f 0:vinp    =  84.7991f 0:vop     = 326.4226f
 +0:vss     = 146.8756f 1:1       = 149.0821f 1:2       = 448.2874f
 +1:b       = 553.2202f 1:von     = 447.3420f 1:z1      = 400.0000f

 

          ***** job concluded
  *** initial damped pseudo transient completed. ***
  *** final try started ***
1****** HSPICE -- B-2008.09 32-BIT (Aug 26 2008) winnt ******                   
 ******  
 *researchtry3.sp

  ******  transient analysis tnom=  25.000 temp=  25.000 *****
 ***** operating point status is voltage   simulation time is     0.     

   *** parameter f                =    3.200E+05 ***

    node    =voltage      node    =voltage      node    =voltage

 +0:b0      = 600.0000m 0:b1      = 300.0000m 0:inx     = 499.9668m
 +0:vb      = 700.0000m 0:vdd     =   1.0000  0:vg      = 307.6853m
 +0:vinn    = 500.0000m 0:vinp    = 499.9668m 0:vop     = 307.6853m
 +0:vss     =   0.      1:1       = 601.5196m 1:2       = 603.1337m
 +1:b       = 797.6641m 1:von     = 399.0772m 1:z1      = 601.5196m


 maximum nodal capacitance=   5.002E-11         on node     0:inx             

    nodal  capacitance table 

    node    =    cap      node    =    cap      node    =    cap

 +0:b0      =  58.6118f 0:b1      =  37.9046f 0:inx     =  50.0171p
 +0:vb      =  11.4399f 0:vdd     = 386.7680f 0:vg      =   2.8674f
 +0:vinn    =  84.7993f 0:vinp    =  84.7991f 0:vop     = 326.4226f
 +0:vss     = 146.8756f 1:1       = 149.0821f 1:2       = 448.2874f
 +1:b       = 553.2202f 1:von     = 447.3420f 1:z1      = 400.0000f

 

          ***** job concluded
  *** initial damped pseudo transient completed. ***
  *** final try started ***
1****** HSPICE -- B-2008.09 32-BIT (Aug 26 2008) winnt ******                   
 ******  
 *researchtry3.sp

  ******  transient analysis tnom=  25.000 temp=  25.000 *****
 ***** operating point status is voltage   simulation time is     0.     

   *** parameter f                =    3.300E+05 ***

    node    =voltage      node    =voltage      node    =voltage

 +0:b0      = 600.0000m 0:b1      = 300.0000m 0:inx     = 499.9668m
 +0:vb      = 700.0000m 0:vdd     =   1.0000  0:vg      = 307.6853m
 +0:vinn    = 500.0000m 0:vinp    = 499.9668m 0:vop     = 307.6853m
 +0:vss     =   0.      1:1       = 601.5196m 1:2       = 603.1337m
 +1:b       = 797.6641m 1:von     = 399.0772m 1:z1      = 601.5196m


 maximum nodal capacitance=   5.002E-11         on node     0:inx             

    nodal  capacitance table 

    node    =    cap      node    =    cap      node    =    cap

 +0:b0      =  58.6118f 0:b1      =  37.9046f 0:inx     =  50.0171p
 +0:vb      =  11.4399f 0:vdd     = 386.7680f 0:vg      =   2.8674f
 +0:vinn    =  84.7993f 0:vinp    =  84.7991f 0:vop     = 326.4226f
 +0:vss     = 146.8756f 1:1       = 149.0821f 1:2       = 448.2874f
 +1:b       = 553.2202f 1:von     = 447.3420f 1:z1      = 400.0000f

 

          ***** job concluded
1****** HSPICE -- B-2008.09 32-BIT (Aug 26 2008) winnt ******                   
 ******  
 *researchtry3.sp

  ******  job statistics summary tnom=  25.000 temp=  25.000 *****

  ******  HSPICE Threads Information  ******
  Command Line Threads Count:                      0
  Available CPU Count:                             4
  Actual Model Evaluation(Load) Threads Count:     1
  Actual Solver Threads Count:                     1


  ******  Circuit Statistics  ******
  # nodes       =      38  # elements   =      24
  # resistors   =       1  # capacitors =       3  # inductors   =       0
  # mutual_inds =       0  # vccs       =       0  # vcvs        =       0
  # cccs        =       0  # ccvs       =       0  # volt_srcs   =       8
  # curr_srcs   =       1  # diodes     =       0  # bjts        =       0
  # jfets       =       0  # mosfets    =      11  # U elements  =       0
  # T elements  =       0  # W elements =       0  # B elements  =       0
  # S elements  =       0  # P elements =       0  # va device   =       0


  ******  Runtime Statistics (seconds)  ******

  analysis           time    # points   tot. iter  conv.iter
  op point           0.10           1         495
  dc sweep           0.11         991        2009
  ac analysis        0.09        1301        1301
  transient          0.30       30003        3546        1773 rev=        15
  readin             0.18
  errchk             0.02
  setup              0.02
  output             0.00


           total memory used          416  kbytes
           total cpu time            0.92 seconds
           total elapsed time           1 seconds
           job started at     18:05:49 12/03/2015
           job ended   at     18:05:50 12/03/2015


 Init: hspice initialization file: C:\synopsys\Hspice_B-2008.09\hspice.ini
