 ****** HSPICE -- B-2008.09 32-BIT (Aug 26 2008) winnt ******                   
  Copyright (C) 2008 Synopsys, Inc. All Rights Reserved.                        
  Unpublished-rights reserved under US copyright laws.
  This program is protected by law and is subject to the 
  terms and conditions of the license agreement from Synopsys.
  Use of this program is your acceptance to be bound by the 
  license agreement. HSPICE is the trademark of Synopsys, Inc.
  Input File: c:\users\timer\documents\github\hspice\researchtry\researchtry3.sp
 Init: read install configuration file: C:\synopsys\Hspice_B-2008.09\meta.cfg
 Init: hspice initialization file: C:\synopsys\Hspice_B-2008.09\hspice.ini




 .option post acout=0 accurate dcon=1 converge=1 gmindc=   1.0000e-12
 ***netlist***
 mp	inx	vb	vdd	vdd pch	w = 10u l = 0.2u
 mnw	inx	vg	vss	vss nch	w = 2.5u l = 0.2u
 *cl 	inx	eout 1p
 edc	eo	gnd	opamp	ref	inx
 rdc	eo	inx 1000k
 cdc	eo	inx 1p
 ***output***
 *e0	vo	gnd	opamp	inx	vo
 ***source***
 vd		vdd	gnd dc = 1v
 vs		vss	gnd dc = 0v
 vbias	vb	gnd dc = 0.7v
 vin		vg	gnd dc = 0.3v ac = 1

 vref	ref	gnd dc = 411.3907m
 ***
 .op
 .ac dec 100 0.1	1000
 .probe ac vdb(inx)	i(edc)	i(cdc)


 **warning**  the accurate option increases  the cpu time but the results
                are more accurate.
 ***accurate option sets default value of the options: 
 lvltim= 4         dvdt= 3       relvar= 200.00m absvar= 200.00m
     ft= 200.00m relmos=  10.00m
 (used for FFT control ) fft_accurate= 1
 

 
      
  *** initial damped pseudo transient completed. ***
  *** final try started ***
1****** HSPICE -- B-2008.09 32-BIT (Aug 26 2008) winnt ******                   
 ******  
 *researchtry3.sp

  ******  operating point information tnom=  25.000 temp=  25.000 *****
 ***** operating point status is all       simulation time is     0.     
    node    =voltage      node    =voltage      node    =voltage

 +0:eo      = 410.7825m 0:inx     = 411.3907m 0:ref     = 411.3907m
 +0:vb      = 700.0000m 0:vdd     =   1.0000  0:vg      = 300.0000m
 +0:vss     =   0.     


 ****  voltage sources

 subckt                                                         
 element  0:vd       0:vs       0:vbias    0:vin      0:vref    
  volts      1.0000     0.       700.0000m  300.0000m  411.3907m
  current  -81.9943n   81.9943n    0.         0.         0.     
  power     81.9943n    0.         0.         0.         0.     

     total voltage source power dissipation=   81.9943n       watts



 **** resistors

 subckt             
 element  0:rdc     
  r value    1.0000x
  v drop  -608.1809u
  current -608.1809p
  power    369.8840f


 **** voltage-controlled voltage sources


 subckt             
 element  0:edc     
  volts    410.7825m
  current  608.1809p





 **** mosfets


 subckt                        
 element  0:mp       0:mnw     
 model    0:pch.4    0:nch.8   
 region       Cutoff     Cutoff
  id       -81.9932n   81.9935n
  ibs      1.193e-23 -1.521e-23
  ibd       25.9605a   -8.7604a
  vgs     -300.0000m  300.0000m
  vds     -588.6093m  411.3907m
  vbs        0.         0.     
  vth     -501.0523m  519.1913m
  vdsat    -42.3080m   40.9514m
  vod      201.0523m -219.1913m
  beta       4.8395m    6.8707m
  gam eff  647.5761m  897.6890m
  gm         2.1728u    2.1951u
  gds       42.3485n   50.7729n
  gmb      747.0403n  662.8955n
  cdtot     12.5801f    3.0517f
  cgtot     10.4010f    2.8695f
  cstot     14.6923f    3.4267f
  cbtot     24.5161f    5.6845f
  cgs        3.3032f  917.7171a
  cgd        3.2765f  914.0448a




          ***** job concluded
1****** HSPICE -- B-2008.09 32-BIT (Aug 26 2008) winnt ******                   
 ******  
 *researchtry3.sp

  ******  job statistics summary tnom=  25.000 temp=  25.000 *****

  ******  HSPICE Threads Information  ******
  Command Line Threads Count:                      0
  Available CPU Count:                             4
  Actual Model Evaluation(Load) Threads Count:     1
  Actual Solver Threads Count:                     1


  ******  Circuit Statistics  ******
  # nodes       =      12  # elements   =      10
  # resistors   =       1  # capacitors =       1  # inductors   =       0
  # mutual_inds =       0  # vccs       =       0  # vcvs        =       1
  # cccs        =       0  # ccvs       =       0  # volt_srcs   =       5
  # curr_srcs   =       0  # diodes     =       0  # bjts        =       0
  # jfets       =       0  # mosfets    =       2  # U elements  =       0
  # T elements  =       0  # W elements =       0  # B elements  =       0
  # S elements  =       0  # P elements =       0  # va device   =       0


  ******  Runtime Statistics (seconds)  ******

  analysis           time    # points   tot. iter  conv.iter
  op point           0.03           1          43
  ac analysis        0.05         401         401
  readin             0.17
  errchk             0.02
  setup              0.06
  output             0.00


           total memory used          208  kbytes
           total cpu time            0.35 seconds
           total elapsed time           1 seconds
           job started at     18:47:04 11/25/2015
           job ended   at     18:47:04 11/25/2015


 Init: hspice initialization file: C:\synopsys\Hspice_B-2008.09\hspice.ini
