 ****** HSPICE -- B-2008.09 32-BIT (Aug 26 2008) winnt ******                   
  Copyright (C) 2008 Synopsys, Inc. All Rights Reserved.                        
  Unpublished-rights reserved under US copyright laws.
  This program is protected by law and is subject to the 
  terms and conditions of the license agreement from Synopsys.
  Use of this program is your acceptance to be bound by the 
  license agreement. HSPICE is the trademark of Synopsys, Inc.
  Input File: c:\users\timer\documents\github\hspice\researchtry\researchtry3.sp
 Init: read install configuration file: C:\synopsys\Hspice_B-2008.09\meta.cfg
 Init: hspice initialization file: C:\synopsys\Hspice_B-2008.09\hspice.ini




 .option post acout=0 accurate dcon=1 converge=1 gmindc=   1.0000e-12
 ***netlist***
 mp	inx	vb	vdd	vdd pch	w = 11u l = 0.2u
 mnw	inx	vg	vss	vss nch	w = 2.5u l = 0.2u
 *cl 	inx	eout 1p

 *rdc	eo	inx 1000k
 *cdc	eo	inx 1p
 ***output***

 .subckt	op	vdd	vss	vinn	vinp	vop	b0	b1	
 mb	b	b0		vdd	vdd	pch	w = 10u  l = 1u	  m = 2
 m1	1	vinn	b		b		pch	w = 30u l = 0.4u m = 2
 m2	2	vinp	b		b		pch	w = 30u l = 0.4u m = 2
 m5	1	b1		vss	vss	nch	w = 13u l = 0.4u m = 1
 m6	2	b1		vss	vss	nch	w = 13u l = 0.4u m = 1
 m3	von	1		vdd	vdd	pch	w = 18u    l = 1u m = 1
 m4	vop	2		vdd	vdd	pch w = 17.83u l = 1u m = 1
 m7	von	von	vss	vss	nch	w = 3.8u   l = 1u m = 1	
 m8	vop	von	vss	vss	nch	w = 3.7u   l = 1u m = 1
 .ends

 xopf	vdd	vss	vinn	vinp	vop	b0	b1	op
 .param 
 +bias			= 0.6
 +bias2		= 0.3
 vb 		b0		gnd dc bias
 vb1		b1		gnd dc bias2
 vref	vinn	gnd dc = 0.5	*496.3104m
 v1		vinp	inx dc = 0
 v2		vop		vg  dc = 0


 ***source***
 vd		vdd	gnd dc = 1v
 vs		vss	gnd dc = 0v
 vbias	vb	gnd dc = 0.7v
 *vin		vg	gnd dc = 0.3v ac = 1
 iin	gnd inx dc = 10n ac = 1

 ***
 .op
 .dc iin 1n	100n	0.1n
 .ac dec 100 0.1	1000
 .probe ac vdb(inx)


 **warning**  the accurate option increases  the cpu time but the results
                are more accurate.
 ***accurate option sets default value of the options: 
 lvltim= 4         dvdt= 3       relvar= 200.00m absvar= 200.00m
     ft= 200.00m relmos=  10.00m
 (used for FFT control ) fft_accurate= 1
1****** HSPICE -- B-2008.09 32-BIT (Aug 26 2008) winnt ******                   
 ******  
 *researchtry3.sp

  ******  circuit name directory
 circuit number to circuit name directory
   number circuitname                     definition         multiplier
        0 main circuit
        1 xopf.                           op                 1.00 
 

 
      
  Opening plot unit= 79
 file=c:\users\timer\documents\github\hspice\researchtry\researchtry3.pa0      

  *** initial damped pseudo transient completed. ***
  *** final try started ***
1****** HSPICE -- B-2008.09 32-BIT (Aug 26 2008) winnt ******                   
 ******  
 *researchtry3.sp

  ******  operating point information tnom=  25.000 temp=  25.000 *****
 ***** operating point status is all       simulation time is     0.     
    node    =voltage      node    =voltage      node    =voltage

 +0:b0      = 600.0000m 0:b1      = 300.0000m 0:inx     = 499.9661m
 +0:vb      = 700.0000m 0:vdd     =   1.0000  0:vg      = 303.9628m
 +0:vinn    = 500.0000m 0:vinp    = 499.9661m 0:vop     = 303.9628m
 +0:vss     =   0.      1:1       = 601.5031m 1:2       = 603.1507m
 +1:b       = 797.6638m 1:von     = 399.0942m


 ****  voltage sources

 subckt                                                                    
 element  0:vb       0:vb1      0:vref     0:v1       0:v2       0:vd      
  volts    600.0000m  300.0000m  500.0000m    0.         0.         1.0000 
  current    0.         0.         0.         0.         0.        -1.6263u
  power      0.         0.         0.         0.         0.         1.6263u

 subckt                        
 element  0:vs       0:vbias   
  volts      0.       700.0000m
  current    1.6363u    0.     
  power      0.         0.     

     total voltage source power dissipation=    1.6263u       watts



 ***** current sources

 subckt             
 element  0:iin     
  volts   -499.9661m
  current   10.0000n
  power      4.9997n


     total current source power dissipation=   4.9997n       watts


 **** mosfets


 subckt                         xopf       xopf       xopf       xopf      
 element  0:mp       0:mnw      1:mb       1:m1       1:m2       1:m5      
 model    0:pch.4    0:nch.8    0:pch.3    0:pch.4    0:pch.4    0:nch.4   
 region       Cutoff     Cutoff     Cutoff     Cutoff     Cutoff     Cutoff
  id       -86.0774n   96.0774n -554.8351n -277.3650n -277.4693n  277.3646n
  ibs      1.248e-23 -1.782e-23  8.073e-23  3.936e-23  3.938e-23 -4.594e-23
  ibd       28.4605a   -8.9830a   51.9013a  151.8471a  151.8422a -107.4587a
  vgs     -300.0000m  303.9628m -400.0000m -297.6638m -297.6976m  300.0000m
  vds     -500.0339m  499.9661m -202.3362m -196.1607m -194.5131m  601.5031m
  vbs        0.         0.         0.         0.         0.         0.     
  vth     -501.3812m  518.9690m -458.7427m -471.6908m -471.6921m  491.0351m
  vdsat    -42.2998m   40.9874m  -51.3038m  -41.5020m  -41.5027m   43.9133m
  vod      201.3812m -215.0062m   58.7427m  174.0270m  173.9945m -191.0351m
  beta       5.3236m    6.8710m    1.4883m   11.7361m   11.7361m   15.0987m
  gam eff  647.5761m  897.6890m  497.9476m  541.3676m  541.3676m  556.1233m
  gm         2.2897u    2.5606u   12.4563u    7.4885u    7.4910u    7.5270u
  gds       46.5823n   55.0030n   79.4959n   90.3136n   90.8709n   63.2941n
  gmb      788.8379n  770.4937n    4.0970u    2.5197u    2.5205u    2.1698u
  cdtot     14.0761f    2.9963f   27.5778f   82.0434f   82.0811f   14.6916f
  cgtot     11.4399f    2.8684f   58.6118f   84.7993f   84.7991f   18.9523f
  cstot     16.1411f    3.4273f   44.8448f   87.8160f   87.8166f   17.2107f
  cbtot     27.1844f    5.6278f   80.8326f  174.9864f  175.0235f   31.6673f
  cgs        3.6330f  918.1801a   18.8854f   20.1828f   20.1833f    4.8321f
  cgd        3.6044f  914.0437a    6.5675f   19.6732f   19.6732f    4.7623f



 subckt   xopf       xopf       xopf       xopf       xopf      
 element  1:m6       1:m3       1:m4       1:m7       1:m8      
 model    0:nch.4    0:pch.3    0:pch.3    0:nch.7    0:nch.7   
 region       Cutoff     Cutoff     Cutoff     Cutoff     Cutoff
  id       277.4689n -502.1637n -483.2021n  502.1641n  483.2029n
  ibs     -4.596e-23  7.187e-23  6.917e-23 -8.892e-23 -8.578e-23
  ibd     -111.8949a   45.9633a   45.5387a  -12.7122a  -12.4080a
  vgs      300.0000m -398.4969m -396.8493m  399.0942m  399.0942m
  vds      603.1507m -600.9058m -696.0372m  399.0942m  303.9628m
  vbs        0.         0.         0.         0.         0.     
  vth      491.0341m -458.6508m -458.6289m  483.5632m  483.5949m
  vdsat     43.9133m  -51.0157m  -50.6908m   58.1700m   58.1570m
  vod     -191.0341m   60.1539m   61.7796m  -84.4690m  -84.5007m
  beta      15.0987m    1.3402m    1.3277m    1.5707m    1.5278m
  gam eff  556.1233m  497.9476m  497.9476m  519.2085m  519.5326m
  gm         7.5298u   11.2873u   10.8903u   10.9188u   10.5134u
  gds       63.2690n   43.0407n   40.7759n   50.6435n   56.8890n
  gmb        2.1706u    3.7140u    3.5840u    3.1640u    3.0471u
  cdtot     14.6872f   22.4632f   21.8533f    4.5755f    4.5585f
  cgtot     18.9523f   52.3503f   51.5161f   10.2857f   10.0185f
  cstot     17.2107f   39.7052f   38.7371f    6.5270f    6.3576f
  cbtot     31.6630f   70.1892f   69.1192f   13.7206f   13.4697f
  cgs        4.8321f   16.5273f   15.8945f    2.4108f    2.3477f
  cgd        4.7623f    5.8996f    5.8437f    1.3906f    1.3543f




          ***** job concluded
1****** HSPICE -- B-2008.09 32-BIT (Aug 26 2008) winnt ******                   
 ******  
 *researchtry3.sp

  ******  job statistics summary tnom=  25.000 temp=  25.000 *****

  ******  HSPICE Threads Information  ******
  Command Line Threads Count:                      0
  Available CPU Count:                             4
  Actual Model Evaluation(Load) Threads Count:     1
  Actual Solver Threads Count:                     1


  ******  Circuit Statistics  ******
  # nodes       =      37  # elements   =      20
  # resistors   =       0  # capacitors =       0  # inductors   =       0
  # mutual_inds =       0  # vccs       =       0  # vcvs        =       0
  # cccs        =       0  # ccvs       =       0  # volt_srcs   =       8
  # curr_srcs   =       1  # diodes     =       0  # bjts        =       0
  # jfets       =       0  # mosfets    =      11  # U elements  =       0
  # T elements  =       0  # W elements =       0  # B elements  =       0
  # S elements  =       0  # P elements =       0  # va device   =       0


  ******  Runtime Statistics (seconds)  ******

  analysis           time    # points   tot. iter  conv.iter
  op point           0.03           1         154
  dc sweep           0.12         991        2009
  ac analysis        0.05         401         401
  readin             0.16
  errchk             0.02
  setup              0.01
  output             0.00


           total memory used          390  kbytes
           total cpu time            0.43 seconds
           total elapsed time           1 seconds
           job started at     14:11:16 11/29/2015
           job ended   at     14:11:16 11/29/2015


 Init: hspice initialization file: C:\synopsys\Hspice_B-2008.09\hspice.ini
