 ****** HSPICE -- B-2008.09 32-BIT (Aug 26 2008) winnt ******                   
  Copyright (C) 2008 Synopsys, Inc. All Rights Reserved.                        
  Unpublished-rights reserved under US copyright laws.
  This program is protected by law and is subject to the 
  terms and conditions of the license agreement from Synopsys.
  Use of this program is your acceptance to be bound by the 
  license agreement. HSPICE is the trademark of Synopsys, Inc.
  Input File: c:\users\timer\documents\github\hspice\researchtry\researchtry3.sp
 Init: read install configuration file: C:\synopsys\Hspice_B-2008.09\meta.cfg
 Init: hspice initialization file: C:\synopsys\Hspice_B-2008.09\hspice.ini




 .option post acout=0 accurate dcon=1 converge=1 gmindc= 1.0000e-12  unwrap = 1
 +captab = 1 
 ***op***
 .subckt	op	vdd	vss	vinn	vinp	vop	b0	b1	
 mb	b	b0		vdd	vdd	pch	w = 10u  l = 1u	  m = 2
 m1	1	vinn	b		b		pch	w = 30u l = 0.4u m = 2
 m2	2	vinp	b		b		pch	w = 30u l = 0.4u m = 2
 m5	1	b1		vss	vss	nch	w = 13u l = 0.4u m = 1
 m6	2	b1		vss	vss	nch	w = 13u l = 0.4u m = 1
 m3	von	1		vdd	vdd	pch	w = 18u    l = 1u m = 1
 m4	vop	2		vdd	vdd	pch w = 17.83u l = 1u m = 1
 m7	von	von	vss	vss	nch	w = 3.8u   l = 1u m = 1	
 m8	vop	von	vss	vss	nch	w = 3.7u   l = 1u m = 1
 c1	z1		von 400f
 rz1	z1		1   350k
 c2	2			vop 900f
 .ends

 ***netlist***
 *mp	inx	vb	vdd	vdd pch	w = 11u l = 0.2u    
 ibi vdd	inx dc = 86.0773n ac = 1
 mnw	inx	vg	vss	vss nch	w = 2.5u l = 0.2u

 xopf	vdd	vss	vinn	vinp	vop	b0	b1	op
 *vop		vg	gnd dc = 299.8361m 

 *** bandpass***
 *xop1	vdd	vss	vinn1	vinp1	vop1		b0	b1	op
 *ci	vinn1 	vop1   2.2p
 *cd	vop1		vinn2  220p
 *
 *xop2	vdd	vss	vinn2	vinp2	vout	b0	b1	op
 *cfd	vinn2	vout  2.2p
 *rd	vinn2	vout  47k
 *v1		vinp1	gnd dc = 0.5
 *v2		vinp2	gnd dc = 0.5
 *

 ***filter***
 e2	o2	gnd	opamp	gnd	i2
 clf	i2	o2 1p
 rlf	i2	o2 1k

 ***loading***
 cl	inx	i2 100p
 *cl2	vg	inx 20p
 *cl3	vg	gnd 200n
 .param rr = 1x
 rl	vop 	gnd rr	*the rhand pole can be diminished by it
 * it might because the gain is lowered
 *	and the co is needed. refer to transfer function

 ***param***
 .param 
 +bias			= 0.6
 +bias2		= 0.3

 ***connection source***
 *vw vinn1	inx dc = 0v			*bandpass and inx
 vx		vinp	inx dc = 0		*opf input and inx
 *vy		vop		vg  dc = 0		*opf output and nw_vg

 ***source***
 vd		vdd	gnd dc = 1v
 vs		vss	gnd dc = 0v
 vbias	vb	gnd dc = 0.7v		*pmos for bias current
 vb 		b0		gnd dc bias		*op bias1
 vb1		b1		gnd dc bias2	*op bias2
 vref	vinn	gnd dc = 0.5
 .param f = 100k
 *iin	gnd inx dc = 50n ac = 1 sin(20n 10n f 1ns)

 ***loop gain testing***
 *vlf	vinp	gnd dc = 499.9686m ac = 1
 *vlf	vg	gnd dc = 0.3171173 ac = 1

 ***loop gain test with copy***
 l1		vop		vg  1t
 vyc		vop		vgc dc = 0
 mpc		inxc	vb	vdd	vdd pch	w = 11u  l = 0.2u   
 mnwc	inxc	vgc	vss	vss nch	w = 2.5u l = 0.2u
 clc		inxc	gnd 100p   
 *cl2c	inxc		gnd 100p


 ***
 .op
 *.dc iin 1n	100n	0.1n
 .ac dec 100 0.1	1000g *sweep rr poi 3 1x 10x 1g
 .probe ac vdb(inx) vdb(vg) i(cl) vdb(o2) vdb(vop) i(e2) i(mnw) i(mp) 
 + vdb(inxc)
 *.pz	v(vop) vlf
 .pz v(inxc) ibi
 .tran 10ns 1m *sweep f 310k 330k 10k
 *.noise v(vg)	iin 10

 .alter 

 ***********************************************************************
 ** runlvl is invoked, you can disable it by:
      a) Add option runlvl=0 to your current simulation job.
      b) Copy $installdir/hspice.ini to your HOME directory and
         customize it by adding option runlvl=0, which disables
         it for all of your simulation jobs.
      c) Re-invoke $installdir/bin/config program and unselect the
         option runlvl setting in box 'hspice.ini' which disables
         it for whole group simulation jobs.

 ** runlvl is invoked, some options are ignored or automatically set:
      Options below are automatically set(user setting will overwrite them):
      if runlvl=[1|2|3|4|5|6],  .option bypass=2

      Options below are ignored, they are replaced by automated algorithms:
        lvltim    dvdt      ft    fast   trtol  absvar  relvar
          relq  chgtol    dvtr    imin    itl3    rmax

 ** runlvl is invoked, actual option value used by HSPICE are:
       runlvl= 5       bypass= 2      mbypass=   2.00   bytol= 100.00u
 ***********************************************************************

1****** HSPICE -- B-2008.09 32-BIT (Aug 26 2008) winnt ******                   
 ******  
 *researchtry3.sp

  ******  circuit name directory
 circuit number to circuit name directory
   number circuitname                     definition         multiplier
        0 main circuit
        1 xopf.                           op                 1.00 


  **warning**  in element=       0:l1       defined in subckt 0               
     inductance =   1.000E+12 >= 0.1 henry, please verify it.


 

 **warning** could not find branch element     0:mp              
      branch - output ignored
 
      
  Opening plot unit= 79
 file=c:\users\timer\documents\github\hspice\researchtry\researchtry3.pa0      

  *** initial damped pseudo transient completed. ***
  *** final try started ***
1****** HSPICE -- B-2008.09 32-BIT (Aug 26 2008) winnt ******                   
 ******  
 *researchtry3.sp

  ******  operating point information tnom=  25.000 temp=  25.000 *****
 ***** operating point status is all       simulation time is     0.     
    node    =voltage      node    =voltage      node    =voltage

 +0:b0      = 600.0000m 0:b1      = 300.0000m 0:i2      =   0.     
 +0:inx     = 500.5252m 0:inxc    = 500.0115m 0:o2      =   0.     
 +0:vb      = 700.0000m 0:vdd     =   1.0000  0:vg      = 299.8361m
 +0:vgc     = 299.8459m 0:vinn    = 500.0000m 0:vinp    = 500.5252m
 +0:vop     = 299.8459m 0:vss     =   0.      1:1       = 614.9510m
 +1:2       = 589.3946m 1:b       = 797.9399m 1:von     = 385.3024m
 +1:z1      = 614.9510m


 maximum nodal capacitance=   1.010E-10         on node     0:i2              

    nodal  capacitance table 

    node    =    cap      node    =    cap      node    =    cap

 +0:b0      =  58.6119f 0:b1      =  37.9046f 0:i2      = 101.0000p
 +0:inx     = 100.0030p 0:inxc    = 100.0171p 0:o2      =   1.0000p
 +0:vb      =  11.4399f 0:vdd     = 388.2853f 0:vg      =   2.8696f
 +0:vgc     =   2.8696f 0:vinn    =  84.7976f 0:vinp    =  84.8009f
 +0:vop     = 926.4000f 0:vss     = 155.0362f 1:1       = 146.9317f
 +1:2       =   1.0514p 1:b       = 553.2076f 1:von     = 446.8387f
 +1:z1      = 400.0000f

 

 ****  voltage sources

 subckt                                                                    
 element  0:vx       0:vd       0:vs       0:vbias    0:vb       0:vb1     
  volts      0.         1.0000     0.       700.0000m  600.0000m  300.0000m
  current    0.        -1.7534u    1.4535u    0.         0.         0.     
  power      0.         1.7534u    0.         0.         0.         0.     

 subckt                        
 element  0:vref     0:vyc     
  volts    500.0000m    0.     
  current    0.         0.     
  power      0.         0.     

     total voltage source power dissipation=    1.7534u       watts



 ***** current sources

 subckt             
 element  0:ibi     
  volts    499.4748m
  current   86.0773n
  power    -42.9934n


     total current source power dissipation= -42.9934n       watts

 **** resistors

 subckt                         xopf      
 element  0:rlf      0:rl       1:rz1     
  r value    1.0000k    1.0000x  350.0000k
  v drop     0.       299.8459m    0.     
  current    0.       299.8459n    0.     
  power      0.        89.9076n    0.     


 **** voltage-controlled voltage sources


 subckt             
 element  0:e2      
  volts      0.     
  current    0.     





 **** mosfets


 subckt                                    xopf       xopf       xopf      
 element  0:mnw      0:mpc      0:mnwc     1:mb       1:m1       1:m2      
 model    0:nch.8    0:pch.4    0:nch.8    0:pch.3    0:pch.4    0:pch.4   
 region       Cutoff     Cutoff     Cutoff     Cutoff     Cutoff     Cutoff
  id        86.0780n  -86.0753n   86.0753n -554.8131n -278.2149n -276.5974n
  ibs     -1.597e-23  1.248e-23 -1.597e-23  8.073e-23  3.948e-23  3.925e-23
  ibd       -8.9666a   28.4605a   -8.9607a   51.9011a  151.7979a  151.8752a
  vgs      299.8361m -300.0000m  299.8459m -400.0000m -297.9399m -297.4148m
  vds      500.5252m -499.9885m  500.0115m -202.0601m -182.9889m -208.5454m
  vbs        0.         0.         0.         0.         0.         0.     
  vth      518.9675m -501.3814m  518.9688m -458.7428m -471.7012m -471.6811m
  vdsat     40.9518m  -42.2998m   40.9518m  -51.3038m  -41.5079m  -41.4968m
  vod     -219.1314m  201.3814m -219.1229m   58.7428m  173.7613m  174.2663m
  beta       6.8710m    5.3236m    6.8710m    1.4883m   11.7361m   11.7362m
  gam eff  897.6890m  647.5761m  897.6890m  497.9476m  541.3676m  541.3676m
  gm         2.3040u    2.2897u    2.3039u   12.4558u    7.5090u    7.4700u
  gds       49.3005n   46.5824n   49.3182n   79.6306n   95.2766n   86.5898n
  gmb      693.9878n  788.8209n  693.9686n    4.0969u    2.5265u    2.5135u
  cdtot      2.9960f   14.0762f    2.9963f   27.5801f   82.3471f   81.7625f
  cgtot      2.8696f   11.4399f    2.8696f   58.6119f   84.7976f   84.8009f
  cstot      3.4267f   16.1411f    3.4267f   44.8447f   87.8207f   87.8118f
  cbtot      5.6289f   27.1845f    5.6292f   80.8347f  175.2852f  174.7099f
  cgs      917.7198a    3.6330f  917.7207a   18.8855f   20.1870f   20.1791f
  cgd      914.0445a    3.6044f  914.0445a    6.5675f   19.6733f   19.6731f



 subckt   xopf       xopf       xopf       xopf       xopf       xopf      
 element  1:m5       1:m6       1:m3       1:m4       1:m7       1:m8      
 model    0:nch.4    0:nch.4    0:pch.3    0:pch.3    0:nch.7    0:nch.7   
 region       Cutoff     Cutoff     Cutoff     Cutoff     Cutoff     Cutoff
  id       278.2144n  276.5971n -370.1300n -656.2642n  370.1304n  356.4200n
  ibs     -4.609e-23 -4.582e-23  5.297e-23  9.394e-23 -6.554e-23 -6.327e-23
  ibd     -152.3843a  -81.8274a   45.9625a   45.5400a  -12.7121a  -12.4080a
  vgs      300.0000m  300.0000m -385.0490m -410.6054m  385.3024m  385.3024m
  vds      614.9510m  589.3946m -614.6976m -700.1541m  385.3024m  299.8459m
  vbs        0.         0.         0.         0.         0.         0.     
  vth      491.0267m  491.0428m -458.6477m -458.6280m  483.5663m  483.5958m
  vdsat     43.9135m   43.9132m  -48.5476m  -53.6839m   55.9077m   55.8966m
  vod     -191.0267m -191.0428m   73.5987m   48.0225m  -98.2640m  -98.2934m
  beta      15.0988m   15.0987m    1.3411m    1.3266m    1.5711m    1.5282m
  gam eff  556.1233m  556.1233m  497.9476m  497.9476m  519.2085m  519.5326m
  gm         7.5498u    7.5064u    8.5390u   14.3835u    8.2524u    7.9509u
  gds       63.0959n   63.4847n   32.2601n   54.0438n   38.5965n   42.8318n
  gmb        2.1762u    2.1640u    2.8118u    4.7304u    2.3934u    2.3064u
  cdtot     14.6560f   14.7241f   22.4020f   21.8373f    4.5893f    4.5627f
  cgtot     18.9523f   18.9523f   49.9286f   54.8742f   10.0544f    9.7931f
  cstot     17.2108f   17.2107f   35.3951f   44.5766f    6.0544f    5.8981f
  cbtot     31.6318f   31.6998f   70.0592f   69.2493f   13.7397f   13.4793f
  cgs        4.8321f    4.8321f   13.1023f   20.5547f    2.0664f    2.0122f
  cgd        4.7623f    4.7623f    5.8999f    5.8431f    1.3906f    1.3541f



 ***************************************************
   ******   pole/zero analysis  
 **warning** underflow 1 time(s) in pole/zero analysis
 **warning** underflow 1 time(s) in pole/zero analysis
 **warning** underflow 1 time(s) in pole/zero analysis
 **warning** underflow 1 time(s) in pole/zero analysis
 **warning** underflow 1 time(s) in pole/zero analysis
 **warning** underflow 1 time(s) in pole/zero analysis
 **warning** underflow 1 time(s) in pole/zero analysis
 **warning** underflow 1 time(s) in pole/zero analysis
 **warning** underflow 1 time(s) in pole/zero analysis
 **warning** underflow 1 time(s) in pole/zero analysis
 **warning** underflow 1 time(s) in pole/zero analysis
 **warning** underflow 1 time(s) in pole/zero analysis
 **warning** underflow 1 time(s) in pole/zero analysis
 **warning** underflow 1 time(s) in pole/zero analysis
 **warning** underflow 1 time(s) in pole/zero analysis
 **warning** underflow 1 time(s) in pole/zero analysis
 **warning** underflow 1 time(s) in pole/zero analysis
 **warning** underflow 1 time(s) in pole/zero analysis
 **warning** underflow 1 time(s) in pole/zero analysis
 **warning** underflow 1 time(s) in pole/zero analysis
 **warning** underflow 1 time(s) in pole/zero analysis
 **warning** underflow 1 time(s) in pole/zero analysis
 **warning** underflow 1 time(s) in pole/zero analysis
 **warning** underflow 1 time(s) in pole/zero analysis
 **warning** underflow 1 time(s) in pole/zero analysis
 **warning** underflow 1 time(s) in pole/zero analysis
 **warning** underflow 1 time(s) in pole/zero analysis
 **warning** underflow 1 time(s) in pole/zero analysis
 **warning** underflow 1 time(s) in pole/zero analysis
 **warning** underflow 1 time(s) in pole/zero analysis
 **warning** underflow 1 time(s) in pole/zero analysis
 **warning** underflow 1 time(s) in pole/zero analysis
 **warning** underflow 1 time(s) in pole/zero analysis
 **warning** underflow 1 time(s) in pole/zero analysis
 **warning** underflow 1 time(s) in pole/zero analysis
 **warning** underflow 1 time(s) in pole/zero analysis
 **warning** underflow 1 time(s) in pole/zero analysis
 **warning** underflow 1 time(s) in pole/zero analysis
 **warning** underflow 1 time(s) in pole/zero analysis
 **warning** underflow 1 time(s) in pole/zero analysis
 **warning** underflow 1 time(s) in pole/zero analysis
 **warning** underflow 1 time(s) in pole/zero analysis
 **warning** underflow 1 time(s) in pole/zero analysis
 **warning** underflow 1 time(s) in pole/zero analysis
 **warning** underflow 1 time(s) in pole/zero analysis
 **warning** underflow 1 time(s) in pole/zero analysis
 **warning** underflow 1 time(s) in pole/zero analysis
 **warning** underflow 1 time(s) in pole/zero analysis
 **warning** underflow 1 time(s) in pole/zero analysis
 **warning** underflow 1 time(s) in pole/zero analysis
 **warning** underflow 1 time(s) in pole/zero analysis
 **warning** underflow 1 time(s) in pole/zero analysis
 **warning** underflow 1 time(s) in pole/zero analysis
 **warning** underflow 1 time(s) in pole/zero analysis
 **warning** underflow 1 time(s) in pole/zero analysis
 **warning** underflow 1 time(s) in pole/zero analysis
 **warning** underflow 1 time(s) in pole/zero analysis
 **warning** underflow 1 time(s) in pole/zero analysis
 **warning** underflow 1 time(s) in pole/zero analysis
 **warning** underflow 1 time(s) in pole/zero analysis
 **warning** underflow 1 time(s) in pole/zero analysis
 **warning** underflow 1 time(s) in pole/zero analysis
 **warning** underflow 1 time(s) in pole/zero analysis
 **warning** underflow 1 time(s) in pole/zero analysis
 **warning** underflow 1 time(s) in pole/zero analysis
 **warning** underflow 1 time(s) in pole/zero analysis
 **warning** underflow 1 time(s) in pole/zero analysis
 **warning** underflow 1 time(s) in pole/zero analysis
 **warning** underflow 1 time(s) in pole/zero analysis
 **warning** underflow 1 time(s) in pole/zero analysis
 **warning** underflow 1 time(s) in pole/zero analysis
 **warning** underflow 1 time(s) in pole/zero analysis
 **warning** underflow 1 time(s) in pole/zero analysis
 **warning** underflow 1 time(s) in pole/zero analysis
 **warning** underflow 1 time(s) in pole/zero analysis
 **warning** underflow 1 time(s) in pole/zero analysis
 **warning** underflow 1 time(s) in pole/zero analysis
 **warning** underflow 1 time(s) in pole/zero analysis
 **warning** underflow 1 time(s) in pole/zero analysis
 **warning** underflow 1 time(s) in pole/zero analysis
 **warning** underflow 1 time(s) in pole/zero analysis
 **warning** underflow 1 time(s) in pole/zero analysis
 **warning** underflow 1 time(s) in pole/zero analysis
 **warning** underflow 1 time(s) in pole/zero analysis
 **warning** underflow 1 time(s) in pole/zero analysis
 **warning** underflow 1 time(s) in pole/zero analysis
 **warning** underflow 1 time(s) in pole/zero analysis
 **warning** underflow 1 time(s) in pole/zero analysis
 **warning** underflow 1 time(s) in pole/zero analysis
 **warning** underflow 1 time(s) in pole/zero analysis
 **warning** underflow 1 time(s) in pole/zero analysis
 **warning** underflow 1 time(s) in pole/zero analysis
 **warning** underflow 1 time(s) in pole/zero analysis
 **warning** underflow 1 time(s) in pole/zero analysis
 **warning** underflow 1 time(s) in pole/zero analysis
 **warning** underflow 1 time(s) in pole/zero analysis
 **warning** underflow 1 time(s) in pole/zero analysis
 **warning** underflow 1 time(s) in pole/zero analysis
 **warning** underflow 1 time(s) in pole/zero analysis
 **warning** underflow 1 time(s) in pole/zero analysis
 **warning** underflow 1 time(s) in pole/zero analysis
 **warning** underflow 1 time(s) in pole/zero analysis
 **warning** underflow 1 time(s) in pole/zero analysis
 **warning** underflow 1 time(s) in pole/zero analysis
 **warning** underflow 1 time(s) in pole/zero analysis
 **warning** underflow 1 time(s) in pole/zero analysis
 **warning** underflow 1 time(s) in pole/zero analysis
 **warning** underflow 1 time(s) in pole/zero analysis
 **warning** underflow 1 time(s) in pole/zero analysis
 **warning** underflow 1 time(s) in pole/zero analysis
 **warning** underflow 1 time(s) in pole/zero analysis
 **warning** underflow 1 time(s) in pole/zero analysis
 **warning** underflow 1 time(s) in pole/zero analysis
 **warning** underflow 1 time(s) in pole/zero analysis
 **warning** underflow 1 time(s) in pole/zero analysis
 **warning** underflow 1 time(s) in pole/zero analysis
 **warning** underflow 1 time(s) in pole/zero analysis
 **warning** underflow 1 time(s) in pole/zero analysis
 **warning** underflow 2 time(s) in pole/zero analysis
 **warning** underflow 2 time(s) in pole/zero analysis
 **warning** underflow 2 time(s) in pole/zero analysis
 **warning** underflow 2 time(s) in pole/zero analysis
 **warning** underflow 2 time(s) in pole/zero analysis
 **warning** underflow 2 time(s) in pole/zero analysis
 **warning** underflow 2 time(s) in pole/zero analysis
 **warning** underflow 2 time(s) in pole/zero analysis
 **warning** underflow 2 time(s) in pole/zero analysis
 **warning** underflow 2 time(s) in pole/zero analysis
 **warning** underflow 2 time(s) in pole/zero analysis
 **warning** underflow 2 time(s) in pole/zero analysis
 **warning** underflow 2 time(s) in pole/zero analysis
 **warning** underflow 2 time(s) in pole/zero analysis
 **warning** underflow 2 time(s) in pole/zero analysis
 **warning** underflow 2 time(s) in pole/zero analysis
 **warning** underflow 2 time(s) in pole/zero analysis
 **warning** underflow 2 time(s) in pole/zero analysis
 **warning** underflow 2 time(s) in pole/zero analysis
 **warning** underflow 2 time(s) in pole/zero analysis
 **warning** underflow 2 time(s) in pole/zero analysis
 **warning** underflow 2 time(s) in pole/zero analysis
 **warning** underflow 2 time(s) in pole/zero analysis
 **warning** underflow 2 time(s) in pole/zero analysis
 **warning** underflow 2 time(s) in pole/zero analysis
 **warning** underflow 2 time(s) in pole/zero analysis
 **warning** underflow 2 time(s) in pole/zero analysis
 **warning** underflow 2 time(s) in pole/zero analysis
 **warning** underflow 2 time(s) in pole/zero analysis
 **warning** underflow 2 time(s) in pole/zero analysis
 **warning** underflow 2 time(s) in pole/zero analysis
 **warning** underflow 2 time(s) in pole/zero analysis
 **warning** underflow 2 time(s) in pole/zero analysis
 **warning** underflow 2 time(s) in pole/zero analysis
 **warning** underflow 2 time(s) in pole/zero analysis
 **warning** underflow 2 time(s) in pole/zero analysis
 **warning** underflow 2 time(s) in pole/zero analysis
 **warning** underflow 2 time(s) in pole/zero analysis
