 ****** HSPICE -- B-2008.09 32-BIT (Aug 26 2008) winnt ******                   
  Copyright (C) 2008 Synopsys, Inc. All Rights Reserved.                        
  Unpublished-rights reserved under US copyright laws.
  This program is protected by law and is subject to the 
  terms and conditions of the license agreement from Synopsys.
  Use of this program is your acceptance to be bound by the 
  license agreement. HSPICE is the trademark of Synopsys, Inc.
  Input File: c:\users\timer\documents\github\hspice\gm\classabgm\classabgm_b.sp
 Init: read install configuration file: C:\synopsys\Hspice_B-2008.09\meta.cfg
 Init: hspice initialization file: C:\synopsys\Hspice_B-2008.09\hspice.ini




 .options abstol=1e-7 reltol=1e-7
 + post=1 captab accurate=1 ingold=1

 ***netlist***

 m1 sn vx   vdd vdd pch w = 5u l = 0.4u m = 3
 m3 vx vinp sn  sn  pch w = 12u  l = 0.4u m = 1
 m2 sp vx   vdd vdd pch w = 5u l = 0.4u m = 3
 m4 vx vinn sp  sp  pch w = 12u  l = 0.4u m = 1
 mb  vx vb   vss vss nch w = 15u  l = 1u m = 3

 min ion vinn sn sn pch  w = 1.7u l = 0.4u m = 1
 mip iop vinp sp sp pch  w = 1.7u l = 0.4u m = 1

 mc1 ion ion vss vss nch w = 1.1u l = 0.4u m = 6
 mc2 iop iop vss vss nch w = 1.1u l = 0.4u m = 6

 ***source***
 vd vdd gnd dc = 3.3
 vs vss gnd dc = 0
 vbi vb   gnd dc = 0.5

 .param diff = 0
 vip vinp gnd dc = '2.2-diff'
 vin vinn gnd dc = '2.2+diff'

 *en ion gnd opamp vref ion
 *ep iop gnd opamp vref iop
 *.param rr = 0.4
 *vr vref gnd dc = rr

 ***
 .op
 .dc sweep diff -0.5 0.5 0.001 *sweep rr 0.6 1.6 0.2
 .probe dc lx3(m3) lx3(m1) lx2(m3) lx2(m1) lx2(mip)
 *+ i(en), i(ep) idiff = par('i(ep)-i(en)')
 + vdiff = par('v(iop) - v(ion)') i(mc1) i(mc2) idiff = par('i(mc2)-i(mc1)')
 .end


 **warning**  the accurate option increases  the cpu time but the results
                are more accurate.
 ***accurate option sets default value of the options: 
 lvltim= 4         dvdt= 3       relvar= 200.00m absvar= 200.00m
     ft= 200.00m relmos=  10.00m
 (used for FFT control ) fft_accurate= 1
 

 
      
1****** HSPICE -- B-2008.09 32-BIT (Aug 26 2008) winnt ******                   
 ******  
 *classabgm_b

  ******  operating point information tnom=  25.000 temp=  25.000 *****
 ***** operating point status is all       simulation time is     0.     
    node    =voltage      node    =voltage      node    =voltage

 +0:ion     =   0.4949  0:iop     =   0.4949  0:sn      =   2.9096 
 +0:sp      =   2.9096  0:vb      =   0.5000  0:vdd     =   3.3000 
 +0:vinn    =   2.2000  0:vinp    =   2.2000  0:vss     =   0.     
 +0:vx      =   2.5878 


 maximum nodal capacitance=   2.739E-13         on node     0:vss             

    nodal  capacitance table 

    node    =    cap      node    =    cap      node    =    cap

 +0:ion     = 1.968e-14 0:iop     = 1.968e-14 0:sn      = 9.025e-14
 +0:sp      = 9.025e-14 0:vb      = 6.356e-14 0:vdd     = 1.523e-13
 +0:vinn    = 9.313e-15 0:vinp    = 9.313e-15 0:vss     = 2.739e-13
 +0:vx      = 1.031e-13

 

 ****  voltage sources

 subckt                                                         
 element  0:vd       0:vs       0:vbi      0:vip      0:vin     
  volts      3.3000     0.         0.5000     2.2000     2.2000 
  current -4.235e-06  4.235e-06    0.         0.         0.     
  power    1.398e-05    0.         0.         0.         0.     

     total voltage source power dissipation=  1.398e-05       watts




 **** mosfets


 subckt                                                                    
 element  0:m1       0:m3       0:m2       0:m4       0:mb       0:min     
 model    0:pch.3    0:pch.3    0:pch.3    0:pch.3    0:nch.2    0:pch.3   
 region       Cutoff     Cutoff     Cutoff     Cutoff     Cutoff   Saturati
  id      -2.118e-06 -1.542e-06 -2.118e-06 -1.542e-06  3.078e-06 -5.756e-07
  ibs      4.253e-19  3.050e-19  4.253e-19  3.050e-19 -4.534e-18  1.210e-19
  ibd      1.428e-15  1.106e-15  1.428e-15  1.106e-15 -5.871e-09  1.390e-11
  vgs       -0.7122    -0.7096    -0.7122    -0.7096     0.5000    -0.7096 
  vds       -0.3904    -0.3219    -0.3904    -0.3219     2.5878    -2.4148 
  vbs        0.         0.         0.         0.         0.         0.     
  vth       -0.7255    -0.7214    -0.7255    -0.7214     0.5644    -0.6885 
  vdsat   -7.148e-02 -6.941e-02 -7.148e-02 -6.941e-02  4.997e-02 -9.365e-02
  vod      1.325e-02  1.173e-02  1.325e-02  1.173e-02 -6.443e-02 -2.116e-02
  beta     1.848e-03  1.517e-03  1.848e-03  1.517e-03  1.015e-02  1.933e-04
  gam eff    0.4553     0.4638     0.4553     0.4638     0.4730     0.4276 
  gm       4.179e-05  3.161e-05  4.179e-05  3.161e-05  7.222e-05  9.152e-06
  gds      1.405e-06  1.087e-06  1.405e-06  1.087e-06  4.195e-07  2.673e-07
  gmb      8.942e-06  6.780e-06  8.942e-06  6.780e-06  2.143e-05  1.948e-06
  cdtot    2.316e-14  1.793e-14  2.316e-14  1.793e-14  4.657e-14  2.075e-15
  cgtot    1.032e-14  8.041e-15  1.032e-14  8.041e-15  6.356e-14  1.272e-15
  cstot    2.688e-14  2.035e-14  2.688e-14  2.035e-14  6.333e-14  3.590e-15
  cbtot    4.926e-14  3.750e-14  4.926e-14  3.750e-14  1.362e-13  5.655e-15
  cgs      2.772e-15  2.205e-15  2.772e-15  2.205e-15  9.327e-15  3.203e-16
  cgd      2.772e-15  2.205e-15  2.772e-15  2.205e-15  9.327e-15  3.203e-16



 subckt                                   
 element  0:mip      0:mc1      0:mc2     
 model    0:pch.3    0:nch.6    0:nch.6   
 region     Saturati     Cutoff     Cutoff
  id      -5.756e-07  5.756e-07  5.756e-07
  ibs      1.210e-19 -1.266e-18 -1.266e-18
  ibd      1.390e-11 -1.412e-14 -1.412e-14
  vgs       -0.7096     0.4949     0.4949 
  vds       -2.4148     0.4949     0.4949 
  vbs        0.         0.         0.     
  vth       -0.6885     0.5607     0.5607 
  vdsat   -9.365e-02  4.700e-02  4.700e-02
  vod     -2.116e-02 -6.579e-02 -6.579e-02
  beta     1.933e-04  3.087e-03  3.087e-03
  gam eff    0.4276     0.5095     0.5095 
  gm       9.152e-06  1.449e-05  1.449e-05
  gds      2.673e-07  2.286e-07  2.286e-07
  gmb      1.948e-06  3.959e-06  3.959e-06
  cdtot    2.075e-15  1.144e-14  1.144e-14
  cgtot    1.272e-15  6.173e-15  6.173e-15
  cstot    3.590e-15  1.269e-14  1.269e-14
  cbtot    5.655e-15  2.451e-14  2.451e-14
  cgs      3.203e-16  1.448e-15  1.448e-15
  cgd      3.203e-16  1.448e-15  1.448e-15




          ***** job concluded
1****** HSPICE -- B-2008.09 32-BIT (Aug 26 2008) winnt ******                   
 ******  
 *classabgm_b

  ******  job statistics summary tnom=  25.000 temp=  25.000 *****

  ******  HSPICE Threads Information  ******
  Command Line Threads Count:                      0
  Available CPU Count:                             4
  Actual Model Evaluation(Load) Threads Count:     1
  Actual Solver Threads Count:                     1


  ******  Circuit Statistics  ******
  # nodes       =      31  # elements   =      16
  # resistors   =       0  # capacitors =       0  # inductors   =       0
  # mutual_inds =       0  # vccs       =       0  # vcvs        =       0
  # cccs        =       0  # ccvs       =       0  # volt_srcs   =       7
  # curr_srcs   =       0  # diodes     =       0  # bjts        =       0
  # jfets       =       0  # mosfets    =       9  # U elements  =       0
  # T elements  =       0  # W elements =       0  # B elements  =       0
  # S elements  =       0  # P elements =       0  # va device   =       0


  ******  Runtime Statistics (seconds)  ******

  analysis           time    # points   tot. iter  conv.iter
  op point           0.03           1          29
  dc sweep           0.21        1001        2021
  readin             0.10
  errchk             0.01
  setup              0.01
  output             0.00


           total memory used          231  kbytes
           total cpu time            0.39 seconds
           total elapsed time           1 seconds
           job started at     19:08:00 12/25/2015
           job ended   at     19:08:00 12/25/2015


 Init: hspice initialization file: C:\synopsys\Hspice_B-2008.09\hspice.ini
