 ****** HSPICE -- B-2008.09 32-BIT (Aug 26 2008) winnt ******                   
  Copyright (C) 2008 Synopsys, Inc. All Rights Reserved.                        
  Unpublished-rights reserved under US copyright laws.
  This program is protected by law and is subject to the 
  terms and conditions of the license agreement from Synopsys.
  Use of this program is your acceptance to be bound by the 
  license agreement. HSPICE is the trademark of Synopsys, Inc.
  Input File: c:\users\timer\documents\github\hspice\gm\classabgm\classabgm_b.sp
 Init: read install configuration file: C:\synopsys\Hspice_B-2008.09\meta.cfg
 Init: hspice initialization file: C:\synopsys\Hspice_B-2008.09\hspice.ini




 .options abstol=1e-7 reltol=1e-7
 + post=1 captab accurate=1 ingold=1

 ***netlist***

 m1n sn vx   vdd vdd pch w = 5u l = 0.4u m = 3
 m3n vx vinp sn  sn  pch w = 12u  l = 0.4u m = 1
 m2n sp vx   vdd vdd pch w = 5u l = 0.4u m = 3
 m4n vx vinn sp  sp  pch w = 12u  l = 0.4u m = 1
 mb  vx vb   vss vss nch w = 15u  l = 1u m = 3

 min ion vinn sn sn pch  w = 2.8u l = 0.4u m = 1
 mip iop vinp sp sp pch  w = 2.8u l = 0.4u m = 1

 ***source***
 vd vdd gnd dc = 3.3
 vs vss gnd dc = 0
 vbi vb   gnd dc = 0.5

 .param diff = 0
 vip vinp gnd dc = '2.2-diff'
 vin vinn gnd dc = '2.2+diff'

 en ion gnd opamp vref ion
 ep iop gnd opamp vref iop
 vr vref gnd dc = 1.65

 ***
 .op
 .dc sweep diff -0.5 0.5 0.001
 .probe i(en), i(ep) idiff = par('i(ep)-i(en)') lx3(m3n) lx3(m1n) lx2(m3n) lx2(m1n) lx2(mip)
 .end


 **warning**  the accurate option increases  the cpu time but the results
                are more accurate.
 ***accurate option sets default value of the options: 
 lvltim= 4         dvdt= 3       relvar= 200.00m absvar= 200.00m
     ft= 200.00m relmos=  10.00m
 (used for FFT control ) fft_accurate= 1
 

 
      
1****** HSPICE -- B-2008.09 32-BIT (Aug 26 2008) winnt ******                   
 ******  
 *classabgm_b

  ******  operating point information tnom=  25.000 temp=  25.000 *****
 ***** operating point status is all       simulation time is     0.     
    node    =voltage      node    =voltage      node    =voltage

 +0:ion     =   1.6500  0:iop     =   1.6500  0:sn      =   2.9096 
 +0:sp      =   2.9096  0:vb      =   0.5000  0:vdd     =   3.3000 
 +0:vinn    =   2.2000  0:vinp    =   2.2000  0:vref    =   1.6500 
 +0:vss     =   0.      0:vx      =   2.5872 


 maximum nodal capacitance=   1.995E-13         on node     0:vss             

    nodal  capacitance table 

    node    =    cap      node    =    cap      node    =    cap

 +0:ion     = 3.728e-15 0:iop     = 3.728e-15 0:sn      = 9.540e-14
 +0:sp      = 9.540e-14 0:vb      = 6.356e-14 0:vdd     = 1.523e-13
 +0:vinn    = 1.004e-14 0:vinp    = 1.004e-14 0:vref    =   0.     
 +0:vss     = 1.995e-13 0:vx      = 1.031e-13

 

 ****  voltage sources

 subckt                                                                    
 element  0:vd       0:vs       0:vbi      0:vip      0:vin      0:vr      
  volts      3.3000     0.         0.5000     2.2000     2.2000     1.6500 
  current -4.285e-06  3.084e-06    0.         0.         0.         0.     
  power    1.414e-05    0.         0.         0.         0.         0.     

     total voltage source power dissipation=  1.414e-05       watts



 **** voltage-controlled voltage sources


 subckt                        
 element  0:en       0:ep      
  volts      1.6431     1.6431 
  current  6.006e-07  6.006e-07





 **** mosfets


 subckt                                                                    
 element  0:m1n      0:m3n      0:m2n      0:m4n      0:mb       0:min     
 model    0:pch.3    0:pch.3    0:pch.3    0:pch.3    0:nch.2    0:pch.3   
 region       Cutoff     Cutoff     Cutoff     Cutoff     Cutoff   Saturati
  id      -2.142e-06 -1.542e-06 -2.142e-06 -1.542e-06  3.078e-06 -6.006e-07
  ibs      4.303e-19  3.050e-19  4.303e-19  3.050e-19 -4.533e-18  1.230e-19
  ibd      1.428e-15  1.106e-15  1.428e-15  1.106e-15 -5.858e-09  4.363e-15
  vgs       -0.7128    -0.7096    -0.7128    -0.7096     0.5000    -0.7096 
  vds       -0.3904    -0.3224    -0.3904    -0.3224     2.5872    -1.2596 
  vbs        0.         0.         0.         0.         0.         0.     
  vth       -0.7255    -0.7213    -0.7255    -0.7213     0.5644    -0.7096 
  vdsat   -7.171e-02 -6.941e-02 -7.171e-02 -6.941e-02  4.997e-02 -8.009e-02
  vod      1.266e-02  1.174e-02  1.266e-02  1.174e-02 -6.443e-02 -1.449e-06
  beta     1.848e-03  1.517e-03  1.848e-03  1.517e-03  1.015e-02  3.344e-04
  gam eff    0.4553     0.4638     0.4553     0.4638     0.4730     0.4439 
  gm       4.222e-05  3.161e-05  4.222e-05  3.161e-05  7.221e-05  1.085e-05
  gds      1.420e-06  1.086e-06  1.420e-06  1.086e-06  4.194e-07  3.219e-07
  gmb      9.034e-06  6.779e-06  9.034e-06  6.779e-06  2.143e-05  2.316e-06
  cdtot    2.316e-14  1.793e-14  2.316e-14  1.793e-14  4.658e-14  3.728e-15
  cgtot    1.032e-14  8.041e-15  1.032e-14  8.041e-15  6.356e-14  1.995e-15
  cstot    2.688e-14  2.035e-14  2.688e-14  2.035e-14  6.333e-14  5.380e-15
  cbtot    4.926e-14  3.750e-14  4.926e-14  3.750e-14  1.362e-13  9.016e-15
  cgs      2.772e-15  2.205e-15  2.772e-15  2.205e-15  9.327e-15  5.215e-16
  cgd      2.772e-15  2.205e-15  2.772e-15  2.205e-15  9.327e-15  5.215e-16



 subckt             
 element  0:mip     
 model    0:pch.3   
 region     Saturati
  id      -6.006e-07
  ibs      1.230e-19
  ibd      4.363e-15
  vgs       -0.7096 
  vds       -1.2596 
  vbs        0.     
  vth       -0.7096 
  vdsat   -8.009e-02
  vod     -1.449e-06
  beta     3.344e-04
  gam eff    0.4439 
  gm       1.085e-05
  gds      3.219e-07
  gmb      2.316e-06
  cdtot    3.728e-15
  cgtot    1.995e-15
  cstot    5.380e-15
  cbtot    9.016e-15
  cgs      5.215e-16
  cgd      5.215e-16




          ***** job concluded
1****** HSPICE -- B-2008.09 32-BIT (Aug 26 2008) winnt ******                   
 ******  
 *classabgm_b

  ******  job statistics summary tnom=  25.000 temp=  25.000 *****

  ******  HSPICE Threads Information  ******
  Command Line Threads Count:                      0
  Available CPU Count:                             4
  Actual Model Evaluation(Load) Threads Count:     1
  Actual Solver Threads Count:                     1


  ******  Circuit Statistics  ******
  # nodes       =      28  # elements   =      17
  # resistors   =       0  # capacitors =       0  # inductors   =       0
  # mutual_inds =       0  # vccs       =       0  # vcvs        =       2
  # cccs        =       0  # ccvs       =       0  # volt_srcs   =       8
  # curr_srcs   =       0  # diodes     =       0  # bjts        =       0
  # jfets       =       0  # mosfets    =       7  # U elements  =       0
  # T elements  =       0  # W elements =       0  # B elements  =       0
  # S elements  =       0  # P elements =       0  # va device   =       0


  ******  Runtime Statistics (seconds)  ******

  analysis           time    # points   tot. iter  conv.iter
  op point           0.01           1          15
  dc sweep           0.21        1001        2010
  readin             0.12
  errchk             0.02
  setup              0.10
  output             0.00


           total memory used          223  kbytes
           total cpu time            0.49 seconds
           total elapsed time           1 seconds
           job started at     23:31:12 12/24/2015
           job ended   at     23:31:12 12/24/2015


 Init: hspice initialization file: C:\synopsys\Hspice_B-2008.09\hspice.ini
