 ****** HSPICE -- B-2008.09 32-BIT (Aug 26 2008) winnt ******                   
  Copyright (C) 2008 Synopsys, Inc. All Rights Reserved.                        
  Unpublished-rights reserved under US copyright laws.
  This program is protected by law and is subject to the 
  terms and conditions of the license agreement from Synopsys.
  Use of this program is your acceptance to be bound by the 
  license agreement. HSPICE is the trademark of Synopsys, Inc.
  Input File: c:\users\timer\documents\github\hspice\gm\my-gm.sp                
 Init: read install configuration file: C:\synopsys\Hspice_B-2008.09\meta.cfg
 Init: hspice initialization file: C:\synopsys\Hspice_B-2008.09\hspice.ini




 .options abstol=1e-7 reltol=1e-7
 + post=1 captab=1 accurate=1 ingold=1
 ***netlist***

 *******subckt************
 .subckt gmx vdd vss vb2 in bd gg id sd
 ms  sd  vb2  bd  bd  pch w = 4u    l = 0.4u m = 1
 min id  in  sd  sd  pch w = 25u    l = 0.4u m = 1
 mn  id  gg  vss vss nch w = 11u    l = 0.4u m = 2
 .ends

 *******circuits**********
 mb  bd  vb  vdd vdd pch w = 21u     l = 1u   m = 2
 x1  vdd vss vb2 inp bd ggp idp sdp gmx
 x2  vdd vss vb2 inn bd ggn idn sdn gmx
 v0  idp ggp dc = 0
 v1  idn ggn dc = 0
 *******current cancellation
 mbp  bump     inp     x   x  pch    w = 1u    l = 0.4u m = 1
 mbn  vss   inn    bump   bump   pch    w = 1u    l = 0.4u m = 1
 vx bd x dc = 0.1

 *******output load**************
 *e1 idn gnd opamp ref idn
 *vr ref gnd dc = 0.4
 *rl idn gnd 5k

 *******input******************
 .param diff = 0
 vinp inp  gnd dc = '1.3+diff'
 vinn inn  gnd dc = '1.3-diff'

 ********bias**************
 vbias   vb  gnd dc = 2.7
 vbias2  vb2 gnd dc = 1.4
 vd      vdd gnd dc = 3.3
 vs      vss gnd dc = 0

 *******
 .op
 .dc sweep diff -0.5 0.5 0.001
 .probe dc i(e1) i(rl) idiff = par('i(x1.mn)-i(x2.mn)') ip = par('i(x1.mn)') in = par('i(x2.mn)') i(mbp)
 .end


 **warning**  the accurate option increases  the cpu time but the results
                are more accurate.
 ***accurate option sets default value of the options: 
 lvltim= 4         dvdt= 3       relvar= 200.00m absvar= 200.00m
     ft= 200.00m relmos=  10.00m
 (used for FFT control ) fft_accurate= 1
1****** HSPICE -- B-2008.09 32-BIT (Aug 26 2008) winnt ******                   
 ******  
 *gm

  ******  circuit name directory
 circuit number to circuit name directory
   number circuitname                     definition         multiplier
        0 main circuit
        1 x1.                             gmx                1.00 
        2 x2.                             gmx                1.00 
 

 **warning** could not find branch element     0:e1              
      branch - output ignored
 **warning** could not find branch element     0:rl              
      branch - output ignored
 
      
  Opening plot unit= 79
 file=c:\users\timer\documents\github\hspice\gm\my-gm.pa0                      

1****** HSPICE -- B-2008.09 32-BIT (Aug 26 2008) winnt ******                   
 ******  
 *gm

  ******  operating point information tnom=  25.000 temp=  25.000 *****
 ***** operating point status is all       simulation time is     0.     
    node    =voltage      node    =voltage      node    =voltage

 +0:bd      =   2.0495  0:bump    =   1.8918  0:ggn     =   0.3990 
 +0:ggp     =   0.3990  0:idn     =   0.3990  0:idp     =   0.3990 
 +0:inn     =   1.3000  0:inp     =   1.3000  0:sdn     =   1.8359 
 +0:sdp     =   1.8359  0:vb      =   2.7000  0:vb2     =   1.4000 
 +0:vdd     =   3.3000  0:vss     =   0.      0:x       =   1.9495 


 maximum nodal capacitance=   2.075E-13         on node     0:vdd             

    nodal  capacitance table 

    node    =    cap      node    =    cap      node    =    cap

 +0:bd      = 9.100e-14 0:bump    = 8.878e-15 0:ggn     = 1.806e-14
 +0:ggp     = 1.806e-14 0:idn     = 5.628e-14 0:idp     = 5.628e-14
 +0:inn     = 1.788e-14 0:inp     = 1.787e-14 0:sdn     = 1.162e-13
 +0:sdp     = 1.162e-13 0:vb      = 4.981e-14 0:vb2     = 5.627e-15
 +0:vdd     = 2.075e-13 0:vss     = 1.833e-13 0:x       = 7.346e-15

 

 ****  voltage sources

 subckt                                                                    
 element  0:v0       0:v1       0:vx       0:vinp     0:vinn     0:vbias   
  volts      0.         0.         0.1000     1.3000     1.3000     2.7000 
  current    0.         0.       2.636e-08    0.         0.         0.     
  power      0.         0.      -2.636e-09    0.         0.         0.     

 subckt                                   
 element  0:vbias2   0:vd       0:vs      
  volts      1.4000     3.3000     0.     
  current    0.      -2.949e-07  2.949e-07
  power      0.       9.730e-07    0.     

     total voltage source power dissipation=  9.704e-07       watts




 **** mosfets


 subckt                                    x1         x1         x1        
 element  0:mb       0:mbp      0:mbn      1:ms       1:min      1:mn      
 model    0:pch.11   0:pch.6    0:pch.6    0:pch.3    0:pch.12   0:nch.3   
 region       Cutoff     Cutoff     Cutoff     Cutoff     Cutoff     Cutoff
  id      -2.949e-07 -2.636e-08 -2.635e-08 -1.342e-07 -1.342e-07  1.342e-07
  ibs      5.806e-20  5.774e-21  5.774e-21  2.713e-20  2.641e-20 -2.009e-19
  ibd      4.740e-15  1.036e-16  6.604e-14  3.858e-16  1.309e-14 -2.858e-14
  vgs       -0.6000    -0.6495    -0.5918    -0.6495    -0.5359     0.3990 
  vds       -1.2505  -5.768e-02   -1.8918    -0.2136    -1.4369     0.3990 
  vbs        0.         0.         0.         0.         0.         0.     
  vth       -0.7488    -0.7628    -0.7182    -0.7328    -0.6891     0.5717 
  vdsat   -5.283e-02 -5.491e-02 -5.316e-02 -5.377e-02 -4.663e-02  4.331e-02
  vod        0.1488     0.1133     0.1264   8.332e-02    0.1532    -0.1727 
  beta     2.492e-03  1.066e-04  1.079e-04  4.879e-04  3.235e-03  1.273e-02
  gam eff    0.3948     0.4082     0.4082     0.4517     0.4587     0.5657 
  gm       6.391e-06  4.865e-07  5.084e-07  2.924e-06  3.267e-06  3.648e-06
  gds      5.098e-08  1.455e-07  1.315e-08  1.077e-07  9.246e-08  6.047e-08
  gmb      1.460e-06  1.057e-07  1.104e-07  6.391e-07  7.496e-07  1.082e-06
  cdtot    4.854e-14  2.390e-15  1.524e-15  6.718e-15  2.779e-14  2.849e-14
  cgtot    4.981e-14  8.224e-16  8.304e-16  2.813e-15  1.704e-14  1.806e-14
  cstot    6.998e-14  2.451e-15  2.451e-15  7.332e-15  4.150e-14  3.129e-14
  cbtot    1.375e-13  4.895e-15  4.037e-15  1.390e-14  6.799e-14  5.958e-14
  cgs      7.704e-15  1.922e-16  1.922e-16  7.412e-16  4.584e-15  4.567e-15
  cgd      7.704e-15  1.922e-16  1.922e-16  7.412e-16  4.584e-15  4.567e-15



 subckt   x2         x2         x2        
 element  2:ms       2:min      2:mn      
 model    0:pch.3    0:pch.12   0:nch.3   
 region       Cutoff     Cutoff     Cutoff
  id      -1.342e-07 -1.342e-07  1.342e-07
  ibs      2.713e-20  2.641e-20 -2.009e-19
  ibd      3.858e-16  1.309e-14 -2.858e-14
  vgs       -0.6495    -0.5359     0.3990 
  vds       -0.2136    -1.4369     0.3990 
  vbs        0.         0.         0.     
  vth       -0.7328    -0.6891     0.5717 
  vdsat   -5.377e-02 -4.663e-02  4.331e-02
  vod      8.332e-02    0.1532    -0.1727 
  beta     4.879e-04  3.235e-03  1.273e-02
  gam eff    0.4517     0.4587     0.5657 
  gm       2.924e-06  3.267e-06  3.648e-06
  gds      1.077e-07  9.246e-08  6.047e-08
  gmb      6.391e-07  7.496e-07  1.082e-06
  cdtot    6.718e-15  2.779e-14  2.849e-14
  cgtot    2.813e-15  1.704e-14  1.806e-14
  cstot    7.332e-15  4.150e-14  3.129e-14
  cbtot    1.390e-14  6.799e-14  5.958e-14
  cgs      7.412e-16  4.584e-15  4.567e-15
  cgd      7.412e-16  4.584e-15  4.567e-15




          ***** job concluded
1****** HSPICE -- B-2008.09 32-BIT (Aug 26 2008) winnt ******                   
 ******  
 *gm

  ******  job statistics summary tnom=  25.000 temp=  25.000 *****

  ******  HSPICE Threads Information  ******
  Command Line Threads Count:                      0
  Available CPU Count:                             4
  Actual Model Evaluation(Load) Threads Count:     1
  Actual Solver Threads Count:                     1


  ******  Circuit Statistics  ******
  # nodes       =      37  # elements   =      21
  # resistors   =       0  # capacitors =       0  # inductors   =       0
  # mutual_inds =       0  # vccs       =       0  # vcvs        =       0
  # cccs        =       0  # ccvs       =       0  # volt_srcs   =      12
  # curr_srcs   =       0  # diodes     =       0  # bjts        =       0
  # jfets       =       0  # mosfets    =       9  # U elements  =       0
  # T elements  =       0  # W elements =       0  # B elements  =       0
  # S elements  =       0  # P elements =       0  # va device   =       0


  ******  Runtime Statistics (seconds)  ******

  analysis           time    # points   tot. iter  conv.iter
  op point           0.01           1          22
  dc sweep           0.21        1001        2018
  readin             0.11
  errchk             0.03
  setup              0.07
  output             0.00


           total memory used          366  kbytes
           total cpu time            0.44 seconds
           total elapsed time           1 seconds
           job started at     23:02:56 12/23/2015
           job ended   at     23:02:57 12/23/2015


 Init: hspice initialization file: C:\synopsys\Hspice_B-2008.09\hspice.ini
