 ****** HSPICE -- B-2008.09 32-BIT (Aug 26 2008) winnt ******                   
  Copyright (C) 2008 Synopsys, Inc. All Rights Reserved.                        
  Unpublished-rights reserved under US copyright laws.
  This program is protected by law and is subject to the 
  terms and conditions of the license agreement from Synopsys.
  Use of this program is your acceptance to be bound by the 
  license agreement. HSPICE is the trademark of Synopsys, Inc.
  Input File: c:\users\timer\documents\github\hspice\op\my-op_2stage.sp         
 Init: read install configuration file: C:\synopsys\Hspice_B-2008.09\meta.cfg
 Init: hspice initialization file: C:\synopsys\Hspice_B-2008.09\hspice.ini




 .option post acout=0 accurate dcon=1 converge=1 gmindc=1.0000e-12

 ***netlist***
 ***1st stage***
 m1	1	vinp	b		b		pch	w = 2.9u l = 0.2u m = 2
 m2	2	vinn	b		b		pch	w = 2.9u l = 0.2u m = 2
 m5	1	b1		vss	vss	nch	w = 1.8u l = 0.2u m = 1
 m6	2	b1		vss	vss	nch	w = 1.8u l = 0.2u m = 1
 mb	b	cmfb	vdd	vdd	pch	w = 10u  l = 1u	  m = 4

 ***2nd stage***


 ***param***
 .param 
 +comon		= 0.5
 +bias			= 0.7
 +supplyp	= 1.0
 +supplyn	= 0
 +diff			= 0

 ***source***
 vd		vdd 	gnd dc supplyp
 vs		vss 	gnd dc supplyn
 *vocm	vocm	gnd dc comon 
 vb 		cmfb	gnd dc bias 
 vb1		b1		gnd dc = 0.3

 ***input***
 vinp vinp gnd dc = 'comon+diff' ac 0.5
 vinn vinn gnd dc = 'comon-diff' ac -0.5

 ***output***


 *mt	vdt	vgt	vdd	vdd	pch	w = 10u l = 1u m = 4 *vgs=0.3: (vds, id) = (0.6, 97.6n)(0.2, 93.6n)
 .param wp = 2.9u wn = 1u
 *mt	vdt	vgt	vdd	vdd	pch	w = wp l = 0.2u m = 2  *vgs=0.3: (vds, id) = (0.6, 47n)(0.2, 37.2n)
 mt	vdt	vgt	vss	vss	nch	w = wn l = 0.2u
 vtg	vgt	gnd dc = 0.3v
 vtd	vdt	gnd dc = 0.2v

 .op

 ***sweep***

 ***testing***
 .dc diff -0.5 +0.5 0.01
 ***probe&measuring***
 .ac dec 10 10 1g
 .pz v(2) vinp
 .probe dc i(mt) i(m1) i(m2)


 .end


 **warning**  the accurate option increases  the cpu time but the results
                are more accurate.
 ***accurate option sets default value of the options: 
 lvltim= 4         dvdt= 3       relvar= 200.00m absvar= 200.00m
     ft= 200.00m relmos=  10.00m
 (used for FFT control ) fft_accurate= 1
 **warning** negative ac value for voltage source        0:vinn            
   reset to positive value.
 

 
      
  *** initial damped pseudo transient completed. ***
  *** final try started ***
1****** HSPICE -- B-2008.09 32-BIT (Aug 26 2008) winnt ******                   
 ******  
 ***myop_2stage

  ******  operating point information tnom=  25.000 temp=  25.000 *****
 ***** operating point status is all       simulation time is     0.     
    node    =voltage      node    =voltage      node    =voltage

 +0:1       = 237.6577m 0:2       = 237.6577m 0:b       = 800.5953m
 +0:b1      = 300.0000m 0:cmfb    = 700.0000m 0:vdd     =   1.0000 
 +0:vdt     = 200.0000m 0:vgt     = 300.0000m 0:vinn    = 500.0000m
 +0:vinp    = 500.0000m 0:vss     =   0.     


 ****  voltage sources

 subckt                                                                    
 element  0:vd       0:vs       0:vb       0:vb1      0:vinp     0:vinn    
  volts      1.0000     0.       700.0000m  300.0000m  500.0000m  500.0000m
  current  -93.6432n  115.4547n    0.         0.         0.         0.     
  power     93.6432n    0.         0.         0.         0.         0.     

 subckt                        
 element  0:vtg      0:vtd     
  volts    300.0000m  200.0000m
  current    0.       -21.8115n
  power      0.         4.3623n

     total voltage source power dissipation=   98.0055n       watts




 **** mosfets


 subckt                                                                    
 element  0:m1       0:m2       0:m5       0:m6       0:mb       0:mt      
 model    0:pch.8    0:pch.8    0:nch.8    0:nch.8    0:pch.3    0:nch.12  
 region       Cutoff     Cutoff     Cutoff     Cutoff     Cutoff     Cutoff
  id       -46.8194n  -46.8194n   46.8211n   46.8211n  -93.6416n   21.8111n
  ibs      7.429e-24  7.429e-24 -9.132e-24 -9.132e-24  1.363e-23 -4.849e-24
  ibd       16.4203a   16.4203a   -6.6314a   -6.6314a  103.7960a   -4.1983a
  vgs     -300.5953m -300.5953m  300.0000m  300.0000m -300.0000m  300.0000m
  vds     -562.9376m -562.9376m  237.6577m  237.6577m -199.4047m  200.0000m
  vbs        0.         0.         0.         0.         0.         0.     
  vth     -500.7424m -500.7424m  524.0909m  524.0909m -458.7434m  532.2908m
  vdsat    -41.9624m  -41.9624m   41.2145m   41.2145m  -41.3237m   42.0362m
  vod      200.1470m  200.1470m -224.0909m -224.0909m  158.7434m -232.2908m
  beta       2.6873m    2.6873m    4.8603m    4.8603m    2.9844m    2.6389m
  gam eff  645.9642m  645.9642m  907.4311m  907.4311m  497.9476m  919.5599m
  gm         1.2447u    1.2447u    1.2574u    1.2574u    2.5357u  586.9304n
  gds       24.1410n   24.1410n   38.0507n   38.0507n   13.4824n   20.0467n
  gmb      431.1330n  431.1330n  385.7327n  385.7327n  842.5536n  182.1134n
  cdtot      7.5629f    7.5629f    2.3321f    2.3321f   55.1271f    1.3764f
  cgtot      6.0419f    6.0419f    2.0726f    2.0726f  102.3198f    1.1566f
  cstot      8.7957f    8.7957f    2.5117f    2.5117f   60.0961f    1.4663f
  cbtot     14.7887f   14.7887f    4.2819f    4.2819f  162.8940f    2.5401f
  cgs        1.9108f    1.9108f  659.8116a  659.8116a   14.2423f  365.3151a
  cgd        1.8957f    1.8957f  657.4984a  657.4984a   13.1081f  364.3003a



 ***************************************************
   ******   pole/zero analysis  
 **warning** underflow 1 time(s) in pole/zero analysis
 **warning** underflow 1 time(s) in pole/zero analysis
 **warning** underflow 1 time(s) in pole/zero analysis
 **warning** underflow 1 time(s) in pole/zero analysis
 **warning** underflow 1 time(s) in pole/zero analysis
 **warning** underflow 1 time(s) in pole/zero analysis
 **warning** underflow 1 time(s) in pole/zero analysis
 **warning** underflow 1 time(s) in pole/zero analysis
 **warning** underflow 1 time(s) in pole/zero analysis
 **warning** underflow 1 time(s) in pole/zero analysis
 **warning** underflow 1 time(s) in pole/zero analysis
 
 
    input =  0:vinp          output = v(2)
 
       poles (rad/sec)                 poles ( hertz)
 real            imag            real            imag            
 -6.28515x       0.              -1.00031x       0.              
 -11.2793x       4.11963x        -1.79515x       655.660k        
 -11.2793x       -4.11964x       -1.79515x       -655.660k       
 
       zeros (rad/sec)                 zeros ( hertz)
 real            imag            real            imag            
 -9.31653x       0.              -1.48277x       0.              
 -98.1941x       0.              -15.6281x       0.              
 -223.890x       0.              -35.6332x       0.              
 
  ***** constant factor = 438.953u

          ***** job concluded
1****** HSPICE -- B-2008.09 32-BIT (Aug 26 2008) winnt ******                   
 ******  
 ***myop_2stage

  ******  job statistics summary tnom=  25.000 temp=  25.000 *****

  ******  HSPICE Threads Information  ******
  Command Line Threads Count:                      0
  Available CPU Count:                             4
  Actual Model Evaluation(Load) Threads Count:     1
  Actual Solver Threads Count:                     1


  ******  Circuit Statistics  ******
  # nodes       =      27  # elements   =      17
  # resistors   =       0  # capacitors =       0  # inductors   =       0
  # mutual_inds =       0  # vccs       =       0  # vcvs        =       0
  # cccs        =       0  # ccvs       =       0  # volt_srcs   =      11
  # curr_srcs   =       0  # diodes     =       0  # bjts        =       0
  # jfets       =       0  # mosfets    =       6  # U elements  =       0
  # T elements  =       0  # W elements =       0  # B elements  =       0
  # S elements  =       0  # P elements =       0  # va device   =       0


  ******  Runtime Statistics (seconds)  ******

  analysis           time    # points   tot. iter  conv.iter
  op point           0.03           1          56
  dc sweep           0.04         101         284
  ac analysis        0.06          81          81
  readin             0.18
  errchk             0.03
  setup              0.02
  output             0.00


           total memory used          370  kbytes
           total cpu time            0.38 seconds
           total elapsed time           1 seconds
           job started at     13:03:09 11/27/2015
           job ended   at     13:03:09 11/27/2015


 Init: hspice initialization file: C:\synopsys\Hspice_B-2008.09\hspice.ini
