 ****** HSPICE -- B-2008.09 32-BIT (Aug 26 2008) winnt ******                   
  Copyright (C) 2008 Synopsys, Inc. All Rights Reserved.                        
  Unpublished-rights reserved under US copyright laws.
  This program is protected by law and is subject to the 
  terms and conditions of the license agreement from Synopsys.
  Use of this program is your acceptance to be bound by the 
  license agreement. HSPICE is the trademark of Synopsys, Inc.
  Input File: c:\users\timer\documents\github\hspice\gm\simple2stagegm\my-gm.sp 
 Init: read install configuration file: C:\synopsys\Hspice_B-2008.09\meta.cfg
 Init: hspice initialization file: C:\synopsys\Hspice_B-2008.09\hspice.ini




 .options abstol=1e-7 reltol=1e-7
 + post=1 captab=1 accurate=1 ingold=1
 ***netlist***

 *******subckt************
 .subckt gmx vdd vss in bd gg id sd
 ms  sd  sd bd  bd  pch w = 15u    l = 0.4u m = 1
 min id  id  sd  in  pch w = 25u    l = 0.4u m = 1
 mn  id  gg  vss vss nch w = 6u    l = 0.4u m = 2
 .ends

 *******circuits**********
 mb  bd  vb  vdd vdd pch w = 18u l = 1u   m = 1
 x1  vdd vss inp bd ggp idp sdp gmx
 x2  vdd vss inn bd ggn idn sdn gmx
 v0  idp ggp dc = 0
 v1  idn ggn dc = 0
 *******activelinearization*******
 *ma1 sdn inp sdp sdp pch w = 1u l = 10u m = 1
 *ma2 sdp inn sdn sdn pch w = 1u l = 10u m = 1
 *******bump circuit*******
 *mb1  bump  sdn    x      x      pch    w = 10u    l = 0.4u m = 1
 *mb2  vss   sdp    bump   bump   pch    w = 10u    l = 0.4u m = 1
 *vx bd x dc = 0
 ********
 mb1  bd   ggp  bump bump nch w = 4u l = 0.4u m = 3   *slightly adjust bump centerization
 mb2  bump ggn  vss  vss  nch w = 6u l = 0.4u m = 3

 ******second stage*****
 mo1 io1 ggp vss vss nch w = 5u l = 0.4u m = 2
 mo2 io2 ggn vss vss nch w = 6u l = 0.4u m = 2
 mo3a io1a io1a vdd vdd pch w = 5u l = 0.4u m = 2
 mo4a io2a io1a vdd vdd pch w = 5u l = 0.4u m = 2
 mo3b io1 io1 io1a io1a pch w = 5u l = 0.4u m = 2
 mo4b io2 io1 io2a io2a pch w = 5u l = 0.4u m = 2
 e1  io2 gnd opamp ref io2
 vr ref gnd dc = 1.65
 *******output load**************
 *e1 idn gnd opamp ref idn
 *vr ref gnd dc = 0.383
 *rl idn gnd 5k

 *******input******************
 .param diff = 0 cm = 1.2
 vinp inp  gnd dc = 'cm-diff'
 vinn inn  gnd dc = 'cm+diff'

 ********bias**************
 vbias   vb  gnd dc = 2.7
 *vbias2  vb2 gnd dc = 1.4
 vd      vdd gnd dc = 3.3
 vs      vss gnd dc = 0

 ***diode test***
 d1 a b nw_dio
 va a gnd dc = 1
 vb b gnd dc = 0
 *
 *.model pdio d (                                     level  = 3
 *+ is     = 2.65e-6         rs     = 1.7e-7          n      = 1.23
 *+ bv     = 9               ibv    = 0.03            ik     = 1e20
 *+ ikr    = 1e10            jsw    = 1.05e-11        area   = 7.5e-8
 *+ pj     = 1.1e-3          cj     = 1.38871e-3      pb     = 1.0864354
 *+ mj     = 0.6008857       cjsw   = 3.86159e-10     php    = 1.0864354
 *+ mjsw   = 0.4471985       tlev   = 1               eg     = 1.17
 *+ xti    = 3               tcv    = -1.01e-3        trs    = 1e-3
 *+ tlevc  = 1               cta    = 9.175825e-4     ctp    = 1.162482e-3
 *+ tpb    = 1.249266e-3     tphp   = 3.6054e-4       tref   = 25
 *+ fc     = 0               fcs    = 0             )
 .model nw_dio d (                                   level  = 3
 + is     = 1.2e-5          rs     = 1.8e-7          n      = 1.35
 + bv     = 22              ibv    = 0.03            ik     = 1e20
 + ikr    = 1e10            jsw    = 2.554e-11       area   = 7.6104e-8
 + pj     = 1.108e-3        cj     = 1.02413e-4      pb     = 0.5540683
 + mj     = 0.3574083       cjsw   = 4.84677e-10     php    = 0.5540683
 + mjsw   = 0.2837341       tlev   = 1               eg     = 1.17
 + xti    = 3               tcv    = 8e-5            trs    = 1.12e-3
 + tlevc  = 1               cta    = 3.029206e-3     ctp    = 1.740045e-3
 + tpb    = 3.002617e-3     tphp   = 2.419203e-3     tref   = 25
 + fc     = 0               fcs    = 0           )

 *******
 .op
 .dc va -2 2 0.01
 .dc diff -1 1 0.01 *sweep cm 1 2 0.2
 .probe dc i(e1) i(rl) i(mb)
 + idiff = par('i(x1.mn)-i(x2.mn)') vdiff = par('v(ggp)-v(ggn)') i(mb1)
 + i(mo1) i(mo2) i(mo3) i(mo4) i(x1.mn) i(x2.mn)
 *.print dc i(x1.mn) i(x2.mn) i(mb1)
 .end


 **warning**  the accurate option increases  the cpu time but the results
                are more accurate.
 ***accurate option sets default value of the options: 
 lvltim= 4         dvdt= 3       relvar= 200.00m absvar= 200.00m
     ft= 200.00m relmos=  10.00m
 (used for FFT control ) fft_accurate= 1
1****** HSPICE -- B-2008.09 32-BIT (Aug 26 2008) winnt ******                   
 ******  
 *mygm

  ******  circuit name directory
 circuit number to circuit name directory
   number circuitname                     definition         multiplier
        0 main circuit
        1 x1.                             gmx                1.00 
        2 x2.                             gmx                1.00 
1****** HSPICE -- B-2008.09 32-BIT (Aug 26 2008) winnt ******                   
 ******  
 *mygm

  ******  diode model parameters tnom=  25.000 temp=  25.000 *****
 ********************************************************
 *** common model parameters model name:   0:nw_dio  ****
 ********************************************************

     names  values   units     names  values   units     names  values   units
     -----  ------   -----     -----  ------   -----     -----  ------   -----

   1*** dc breakdown parameters ***
       vb=  22.00  volts        ibv=  30.00m a/m**2 

   2*** parasitic resistance parameters ***
       rs= 180.00nohm*m**2

   3*** capacitance parameters ***
       fc=   0.                 fcs=   0.                   m= 357.41m        
     mjsw= 283.73m               pb= 554.07m volts        php= 554.07m volts  
       tt=   0.    secs         cjo= 102.41u f/m**2       cjp= 484.68p f/m    

   4*** temperature effect parameters ***
     tlev=   1.00             tlevc=   1.00               tcv=  80.00u /deg   
      trs=   1.12m /deg         cta=   3.03m /deg         ctp=   1.74m /deg   
      xti=   3.00            xtitun=   3.00               keg=   1.00         
       eg=   1.17  ev          gap1= 702.00u  ev/deg     gap2=   1.11k  deg   
     ttt1=   0.    /deg        ttt2=   0.    /deg2        tm1=   0.    /deg   
      tm2=   0.    /deg2        tpb=   3.00m v/deg k     tphp=   2.42m v/deg k
     tref=  25.00   deg c 

   5*** noise parameters ***
       kf=   0.                  af=   1.00         

   ***  level   3  model parameters  ***

    level=   3.00                is=  12.00u a/m**2       jsw=  25.54p amp/m  
        n=   1.35               nbv=   1.35                ik= 1.0e+20 a/m**2 
     area=  76.10n m**2      shrink=   1.00                pj=   1.11m meters 
      ikr=  10.00g a/m**2         l=   0.    meters         w=   0.    meters 
       xw=   0.    meters        lm=   0.    meters        lp=   0.    meters 
       wm=   0.    meters        wp=   0.    meters        xm=   0.    meters 
      xoi=   7.00kangstrom       xp=   0.    meters       xom=  10.00kangstrom
    expli=   0.    a/m**2    explir=   0.    amps        jtun=   0.    amps   
   jtunsw=   0.    amps        ntun=  30.00         
  
 

 **warning** could not find branch element     0:rl              
      branch - output ignored
 **warning** could not find branch element     0:mo3             
      branch - output ignored
 **warning** could not find branch element     0:mo4             
      branch - output ignored
 
      
  Opening plot unit= 79
 file=c:\users\timer\documents\github\hspice\gm\simple2stagegm\my-gm.pa0       

1****** HSPICE -- B-2008.09 32-BIT (Aug 26 2008) winnt ******                   
 ******  
 *mygm

  ******  operating point information tnom=  25.000 temp=  25.000 *****
 ***** operating point status is all       simulation time is     0.     
    node    =voltage      node    =voltage      node    =voltage

 +0:a       =   1.0000  0:b       =   0.      0:bd      =   1.4997 
 +0:bump    = 2.435e-02 0:ggn     =   0.3845  0:ggp     =   0.3845 
 +0:idn     =   0.3845  0:idp     =   0.3845  0:inn     =   1.2000 
 +0:inp     =   1.2000  0:io1     =   2.1474  0:io1a    =   2.7237 
 +0:io2     =   1.6500  0:io2a    =   2.7097  0:ref     =   1.6500 
 +0:sdn     =   0.9576  0:sdp     =   0.9576  0:vb      =   2.7000 
 +0:vdd     =   3.3000  0:vss     =   0.     


 maximum nodal capacitance=   1.290E-11         on node     0:a               

    nodal  capacitance table 

    node    =    cap      node    =    cap      node    =    cap

 +0:a       = 1.290e-11 0:b       = 1.290e-11 0:bd      = 1.746e-13
 +0:bump    = 7.742e-14 0:ggn     = 3.507e-14 0:ggp     = 2.865e-14
 +0:idn     = 6.397e-14 0:idp     = 6.397e-14 0:inn     = 6.714e-14
 +0:inp     = 6.714e-14 0:io1     = 4.000e-14 0:io1a    = 7.878e-14
 +0:io2     = 2.677e-14 0:io2a    = 6.298e-14 0:ref     =   0.     
 +0:sdn     = 6.869e-14 0:sdp     = 6.869e-14 0:vb      = 2.143e-14
 +0:vdd     = 1.875e-13 0:vss     = 2.720e-13

 

 ****  voltage sources

 subckt                                                                    
 element  0:v0       0:v1       0:vr       0:vinp     0:vinn     0:vbias   
  volts      0.         0.         1.6500     1.2000     1.2000     2.7000 
  current    0.         0.         0.      -1.062e-12 -1.062e-12    0.     
  power      0.         0.         0.       1.275e-12  1.275e-12    0.     

 subckt                                              
 element  0:vd       0:vs       0:va       0:vb      
  volts      3.3000     0.         1.0000     0.     
  current -3.023e-07  3.011e-07 -5.838e-02  5.838e-02
  power    9.977e-07    0.       5.838e-02    0.     

     total voltage source power dissipation=  5.838e-02       watts



 **** voltage-controlled voltage sources


 subckt             
 element  0:e1      
  volts      1.6500 
  current  1.238e-09




 **** diodes


 subckt             
 element  0:d1      
 model    0:nw_dio  
  id       5.838e-02
  vd         1.0000 
  req        0.5937 
  cap      1.290e-11





 **** mosfets


 subckt                                                                    
 element  0:mb       0:mb1      0:mb2      0:mo1      0:mo2      0:mo3a    
 model    0:pch.2    0:nch.3    0:nch.3    0:nch.3    0:nch.3    0:pch.3   
 region       Cutoff     Cutoff     Cutoff     Cutoff     Cutoff     Cutoff
  id      -1.371e-07  3.920e-08  3.921e-08  8.210e-08  8.177e-08 -8.218e-08
  ibs      2.703e-20 -6.454e-20 -6.151e-20 -1.314e-19 -1.283e-19  1.651e-20
  ibd      7.095e-14 -2.311e-13 -1.517e-14 -6.599e-11 -2.409e-12  9.518e-16
  vgs       -0.6000     0.3601     0.3845     0.3845     0.3845    -0.5763 
  vds       -1.8003     1.4754   2.435e-02    2.1474     1.6500    -0.5763 
  vbs        0.         0.         0.         0.         0.         0.     
  vth       -0.7459     0.5614     0.5734     0.5571     0.5614    -0.7204 
  vdsat   -5.310e-02  4.276e-02  4.301e-02  4.306e-02  4.310e-02 -4.739e-02
  vod        0.1459    -0.2013    -0.1890    -0.1727    -0.1769     0.1441 
  beta     1.068e-03  6.670e-03  1.021e-02  5.636e-03  6.820e-03  1.239e-03
  gam eff    0.3953     0.5536     0.5599     0.5574     0.5599     0.4553 
  gm       2.949e-06  1.090e-06  1.077e-06  2.239e-06  2.233e-06  1.939e-06
  gds      2.226e-08  1.522e-08  1.023e-06  3.012e-08  3.082e-08  5.973e-08
  gmb      6.731e-07  3.195e-07  3.230e-07  6.448e-07  6.497e-07  4.404e-07
  cdtot    1.896e-14  1.455e-14  2.625e-14  1.129e-14  1.384e-14  1.459e-14
  cgtot    2.143e-14  1.022e-14  1.503e-14  8.403e-15  1.002e-14  7.055e-15
  cstot    3.011e-14  1.824e-14  2.644e-14  1.489e-14  1.762e-14  1.792e-14
  cbtot    5.729e-14  3.294e-14  5.269e-14  2.621e-14  3.146e-14  3.217e-14
  cgs      3.303e-15  2.519e-15  3.757e-15  2.092e-15  2.504e-15  1.848e-15
  cgd      3.303e-15  2.519e-15  3.757e-15  2.092e-15  2.504e-15  1.848e-15



 subckt                                    x1         x1         x1        
 element  0:mo4a     0:mo3b     0:mo4b     1:ms       1:min      1:mn      
 model    0:pch.3    0:pch.3    0:pch.3    0:pch.3    0:pch.12   0:nch.3   
 region       Cutoff     Cutoff     Cutoff     Cutoff     Cutoff     Cutoff
  id      -8.301e-08 -8.218e-08 -8.301e-08 -4.896e-08 -4.896e-08  4.896e-08
  ibs      1.667e-20  1.651e-20  1.667e-20  9.666e-21  2.276e-15 -7.680e-20
  ibd      9.518e-16  9.518e-16  9.908e-16  1.376e-15  2.276e-15 -1.652e-14
  vgs       -0.5763    -0.5763    -0.5623    -0.5421    -0.5731     0.3845 
  vds       -0.5903    -0.5763    -1.0597    -0.5421    -0.5731     0.3845 
  vbs        0.         0.         0.         0.         0.2424     0.     
  vth       -0.7201    -0.7204    -0.7074    -0.7146    -0.7616     0.5708 
  vdsat   -4.741e-02 -4.739e-02 -4.735e-02 -4.606e-02 -4.672e-02  4.303e-02
  vod        0.1438     0.1441     0.1450     0.1725     0.1885    -0.1863 
  beta     1.239e-03  1.239e-03  1.244e-03  1.915e-03  3.165e-03  6.812e-03
  gam eff    0.4553     0.4553     0.4553     0.4650     0.4632     0.5599 
  gm       1.958e-06  1.939e-06  1.961e-06  1.208e-06  1.276e-06  1.346e-06
  gds      6.016e-08  5.973e-08  5.716e-08  3.698e-08  3.858e-08  2.236e-08
  gmb      4.446e-07  4.404e-07  4.456e-07  2.858e-07  2.587e-07  3.994e-07
  cdtot    1.453e-14  1.459e-14  1.294e-14  2.074e-14  3.169e-14  1.610e-14
  cgtot    7.055e-15  7.055e-15  7.075e-15  1.034e-14  1.618e-14  1.002e-14
  cstot    1.792e-14  1.792e-14  1.792e-14  2.523e-14  3.761e-14  1.762e-14
  cbtot    3.211e-14  3.217e-14  3.054e-14  4.529e-14  6.714e-14  3.373e-14
  cgs      1.848e-15  1.848e-15  1.848e-15  2.754e-15  4.584e-15  2.504e-15
  cgd      1.848e-15  1.848e-15  1.848e-15  2.754e-15  4.584e-15  2.504e-15



 subckt   x2         x2         x2        
 element  2:ms       2:min      2:mn      
 model    0:pch.3    0:pch.12   0:nch.3   
 region       Cutoff     Cutoff     Cutoff
  id      -4.896e-08 -4.896e-08  4.896e-08
  ibs      9.666e-21  2.276e-15 -7.680e-20
  ibd      1.376e-15  2.276e-15 -1.652e-14
  vgs       -0.5421    -0.5731     0.3845 
  vds       -0.5421    -0.5731     0.3845 
  vbs        0.         0.2424     0.     
  vth       -0.7146    -0.7616     0.5708 
  vdsat   -4.606e-02 -4.672e-02  4.303e-02
  vod        0.1725     0.1885    -0.1863 
  beta     1.915e-03  3.165e-03  6.812e-03
  gam eff    0.4650     0.4632     0.5599 
  gm       1.208e-06  1.276e-06  1.346e-06
  gds      3.698e-08  3.858e-08  2.236e-08
  gmb      2.858e-07  2.587e-07  3.994e-07
  cdtot    2.074e-14  3.169e-14  1.610e-14
  cgtot    1.034e-14  1.618e-14  1.002e-14
  cstot    2.523e-14  3.761e-14  1.762e-14
  cbtot    4.529e-14  6.714e-14  3.373e-14
  cgs      2.754e-15  4.584e-15  2.504e-15
  cgd      2.754e-15  4.584e-15  2.504e-15




          ***** job concluded
1****** HSPICE -- B-2008.09 32-BIT (Aug 26 2008) winnt ******                   
 ******  
 *mygm

  ******  job statistics summary tnom=  25.000 temp=  25.000 *****

  ******  HSPICE Threads Information  ******
  Command Line Threads Count:                      0
  Available CPU Count:                             4
  Actual Model Evaluation(Load) Threads Count:     1
  Actual Solver Threads Count:                     1


  ******  Circuit Statistics  ******
  # nodes       =      58  # elements   =      33
  # resistors   =       0  # capacitors =       0  # inductors   =       0
  # mutual_inds =       0  # vccs       =       0  # vcvs        =       1
  # cccs        =       0  # ccvs       =       0  # volt_srcs   =      16
  # curr_srcs   =       0  # diodes     =       1  # bjts        =       0
  # jfets       =       0  # mosfets    =      15  # U elements  =       0
  # T elements  =       0  # W elements =       0  # B elements  =       0
  # S elements  =       0  # P elements =       0  # va device   =       0


  ******  Runtime Statistics (seconds)  ******

  analysis           time    # points   tot. iter  conv.iter
  op point           0.01           1          17
  dc sweep           0.17         401        1336
  readin             0.11
  errchk             0.02
  setup              0.03
  output             0.00


           total memory used          374  kbytes
           total cpu time            0.36 seconds
           total elapsed time           1 seconds
           job started at     15:11:29 12/29/2015
           job ended   at     15:11:29 12/29/2015


 Init: hspice initialization file: C:\synopsys\Hspice_B-2008.09\hspice.ini
