 ****** HSPICE -- B-2008.09 32-BIT (Aug 26 2008) winnt ******                   
  Copyright (C) 2008 Synopsys, Inc. All Rights Reserved.                        
  Unpublished-rights reserved under US copyright laws.
  This program is protected by law and is subject to the 
  terms and conditions of the license agreement from Synopsys.
  Use of this program is your acceptance to be bound by the 
  license agreement. HSPICE is the trademark of Synopsys, Inc.
  Input File: c:\users\timer\documents\github\hspice\op\my-op_folded.sp         
 Init: read install configuration file: C:\synopsys\Hspice_B-2008.09\meta.cfg
 Init: hspice initialization file: C:\synopsys\Hspice_B-2008.09\hspice.ini




 .option post acout=0 accurate dcon=1 converge=1 gmindc=   1.0000e-12

 ***netlist***

 m1	1	vinp	b		b		pch	w = 2.9u l = 0.2u m = 2
 m2	2	vinn	b		b		pch	w = 2.9u l = 0.2u m = 2
 m5	1	1		vss	vss	nch	w = 1.8u l = 0.2u m = 1
 m6	2	1		vss	vss	nch	w = 1.8u l = 0.2u m = 1
 mb	b	cmfb	vdd	vdd	pch	w = 10u  l = 1u	  m = 4


 ***param***
 .param 
 +comon		= 0.5
 +bias			= 0.7
 +supplyp	= 1.0
 +supplyn	= 0

 ***source***
 vd		vdd 	gnd dc supplyp
 vs		vss 	gnd dc supplyn
 *vocm	vocm	gnd dc comon 
 vb 		cmfb	gnd dc bias 
 *vb1		b1		gnd dc = 0.3

 ***input***
 vinp vinp gnd dc comon ac 1
 vinn vinn gnd dc comon ac 1


 *mt	vdt	vgt	vdd	vdd	pch	w = 10u l = 1u m = 4 *vgs=0.3: (vds, id) = (0.6, 97.6n)(0.2, 93.6n)
 .param wp = 2.9u wn = 1u
 *mt	vdt	vgt	vdd	vdd	pch	w = wp l = 0.2u m = 2  *vgs=0.3: (vds, id) = (0.6, 47n)(0.2, 37.2n)
 mt	vdt	vgt	vss	vss	nch	w = wn l = 0.2u
 vtg	vgt	gnd dc = 0.3v
 vtd	vdt	gnd dc = 0.2v

 .op
 ***sweep***

 ***testing***
 *.dc 
 *.dc vtd 0.8 0.4 0.01
 ***probe&measuring***
 .ac dec 10 10 1g
 .probe i(mt)


 .end


 **warning**  the accurate option increases  the cpu time but the results
                are more accurate.
 ***accurate option sets default value of the options: 
 lvltim= 4         dvdt= 3       relvar= 200.00m absvar= 200.00m
     ft= 200.00m relmos=  10.00m
 (used for FFT control ) fft_accurate= 1
 

 
      
  *** initial damped pseudo transient completed. ***
  *** final try started ***
1****** HSPICE -- B-2008.09 32-BIT (Aug 26 2008) winnt ******                   
 ******  
 *myop_folded

  ******  operating point information tnom=  25.000 temp=  25.000 *****
 ***** operating point status is all       simulation time is     0.     
    node    =voltage      node    =voltage      node    =voltage

 +0:1       = 298.2747m 0:2       = 298.2747m 0:b       = 801.7584m
 +0:cmfb    = 700.0000m 0:vdd     =   1.0000  0:vdt     = 200.0000m
 +0:vgt     = 300.0000m 0:vinn    = 500.0000m 0:vinp    = 500.0000m
 +0:vss     =   0.     


 ****  voltage sources

 subckt                                                                    
 element  0:vd       0:vs       0:vb       0:vinp     0:vinn     0:vtg     
  volts      1.0000     0.       700.0000m  500.0000m  500.0000m  300.0000m
  current  -93.6275n  115.4389n    0.         0.         0.         0.     
  power     93.6275n    0.         0.         0.         0.         0.     

 subckt             
 element  0:vtd     
  volts    200.0000m
  current  -21.8115n
  power      4.3623n

     total voltage source power dissipation=   97.9898n       watts




 **** mosfets


 subckt                                                                    
 element  0:m1       0:m2       0:m5       0:m6       0:mb       0:mt      
 model    0:pch.8    0:pch.8    0:nch.8    0:nch.8    0:pch.3    0:nch.12  
 region       Cutoff     Cutoff     Cutoff     Cutoff     Cutoff     Cutoff
  id       -46.8117n  -46.8117n   46.8131n   46.8131n  -93.6259n   21.8111n
  ibs      7.428e-24  7.428e-24 -9.130e-24 -9.130e-24  1.362e-23 -4.849e-24
  ibd       16.4203a   16.4203a   -6.6319a   -6.6319a  103.7939a   -4.1983a
  vgs     -301.7584m -301.7584m  298.2747m  298.2747m -300.0000m  300.0000m
  vds     -503.4837m -503.4837m  298.2747m  298.2747m -198.2416m  200.0000m
  vbs        0.         0.         0.         0.         0.         0.     
  vth     -500.9631m -500.9631m  523.9389m  523.9389m -458.7436m  532.2908m
  vdsat    -41.9722m  -41.9722m   41.2030m   41.2030m  -41.3236m   42.0362m
  vod      199.2047m  199.2047m -225.6642m -225.6642m  158.7436m -232.2908m
  beta       2.6871m    2.6871m    4.8604m    4.8604m    2.9844m    2.6389m
  gam eff  645.9642m  645.9642m  907.4311m  907.4311m  497.9476m  919.5599m
  gm         1.2458u    1.2458u    1.2590u    1.2590u    2.5353u  586.9304n
  gds       24.8601n   24.8601n   33.6709n   33.6709n   13.5651n   20.0467n
  gmb      431.9628n  431.9628n  385.7170n  385.7170n  842.4117n  182.1134n
  cdtot      7.6575f    7.6575f    2.2967f    2.2967f   55.1450f    1.3764f
  cgtot      6.0411f    6.0411f    2.0730f    2.0730f  102.3199f    1.1566f
  cstot      8.7960f    8.7960f    2.5116f    2.5116f   60.0960f    1.4663f
  cbtot     14.8823f   14.8823f    4.2470f    4.2470f  162.9118f    2.5401f
  cgs        1.9110f    1.9110f  659.7074a  659.7074a   14.2423f  365.3151a
  cgd        1.8957f    1.8957f  657.4978a  657.4978a   13.1081f  364.3003a




          ***** job concluded
1****** HSPICE -- B-2008.09 32-BIT (Aug 26 2008) winnt ******                   
 ******  
 *myop_folded

  ******  job statistics summary tnom=  25.000 temp=  25.000 *****

  ******  HSPICE Threads Information  ******
  Command Line Threads Count:                      0
  Available CPU Count:                             4
  Actual Model Evaluation(Load) Threads Count:     1
  Actual Solver Threads Count:                     1


  ******  Circuit Statistics  ******
  # nodes       =      24  # elements   =      14
  # resistors   =       0  # capacitors =       0  # inductors   =       0
  # mutual_inds =       0  # vccs       =       0  # vcvs        =       0
  # cccs        =       0  # ccvs       =       0  # volt_srcs   =       8
  # curr_srcs   =       0  # diodes     =       0  # bjts        =       0
  # jfets       =       0  # mosfets    =       6  # U elements  =       0
  # T elements  =       0  # W elements =       0  # B elements  =       0
  # S elements  =       0  # P elements =       0  # va device   =       0


  ******  Runtime Statistics (seconds)  ******

  analysis           time    # points   tot. iter  conv.iter
  op point           0.02           1          51
  ac analysis        0.06          81          81
  readin             0.17
  errchk             0.02
  setup              0.01
  output             0.00


           total memory used          368  kbytes
           total cpu time            0.31 seconds
           total elapsed time           1 seconds
           job started at     21:50:17 11/26/2015
           job ended   at     21:50:18 11/26/2015


 Init: hspice initialization file: C:\synopsys\Hspice_B-2008.09\hspice.ini
