 ****** HSPICE -- B-2008.09 32-BIT (Aug 26 2008) winnt ******                   
  Copyright (C) 2008 Synopsys, Inc. All Rights Reserved.                        
  Unpublished-rights reserved under US copyright laws.
  This program is protected by law and is subject to the 
  terms and conditions of the license agreement from Synopsys.
  Use of this program is your acceptance to be bound by the 
  license agreement. HSPICE is the trademark of Synopsys, Inc.
  Input File: c:\users\timer\documents\github\hspice\op\my-op_folded.sp         
 Init: read install configuration file: C:\synopsys\Hspice_B-2008.09\meta.cfg
 Init: hspice initialization file: C:\synopsys\Hspice_B-2008.09\hspice.ini




 .option post acout=0 accurate dcon=1 converge=1 gmindc=1.0000e-12

 ***netlist***

 m1	1	vinp	b		b		pch	w = 2.9u l = 0.2u m = 2
 m2	2	vinn	b		b		pch	w = 2.9u l = 0.2u m = 2
 m5	1	1		vss	vss	nch	w = 1.8u l = 0.2u m = 1
 m6	2	1		vss	vss	nch	w = 1.8u l = 0.2u m = 1
 mb	b	cmfb	vdd	vdd	pch	w = 10u  l = 1u	  m = 4


 ***param***
 .param 
 +comon		= 0.5
 +bias			= 0.7
 +supplyp	= 1.0
 +supplyn	= 0

 ***source***
 vd		vdd 	gnd dc supplyp
 vs		vss 	gnd dc supplyn
 *vocm	vocm	gnd dc comon 
 vb 		cmfb	gnd dc bias 
 *vb1		b1		gnd dc = 0.3

 ***input***
 vinp vinp gnd dc comon ac 0.5
 vinn vinn gnd dc comon ac -0.5

 ***output***
 vout	2	gnd dc = 0.8v


 *mt	vdt	vgt	vdd	vdd	pch	w = 10u l = 1u m = 4 *vgs=0.3: (vds, id) = (0.6, 97.6n)(0.2, 93.6n)
 .param wp = 2.9u wn = 1u
 *mt	vdt	vgt	vdd	vdd	pch	w = wp l = 0.2u m = 2  *vgs=0.3: (vds, id) = (0.6, 47n)(0.2, 37.2n)
 mt	vdt	vgt	vss	vss	nch	w = wn l = 0.2u
 vtg	vgt	gnd dc = 0.3v
 vtd	vdt	gnd dc = 0.2v

 .op

 ***sweep***

 ***testing***
 .dc vtd 0.8 0.4 0.01
 ***probe&measuring***
 .ac dec 10 10 1g
 .pz v(2) vinp
 .probe i(mt)


 .end


 **warning**  the accurate option increases  the cpu time but the results
                are more accurate.
 ***accurate option sets default value of the options: 
 lvltim= 4         dvdt= 3       relvar= 200.00m absvar= 200.00m
     ft= 200.00m relmos=  10.00m
 (used for FFT control ) fft_accurate= 1
 **warning** negative ac value for voltage source        0:vinn            
   reset to positive value.
 

 
      
  *** initial damped pseudo transient completed. ***
  *** final try started ***
1****** HSPICE -- B-2008.09 32-BIT (Aug 26 2008) winnt ******                   
 ******  
 ***myop_folded

  ******  operating point information tnom=  25.000 temp=  25.000 *****
 ***** operating point status is all       simulation time is     0.     
    node    =voltage      node    =voltage      node    =voltage

 +0:1       = 312.3256m 0:2       = 800.0000m 0:b       = 816.3465m
 +0:cmfb    = 700.0000m 0:vdd     =   1.0000  0:vdt     = 200.0000m
 +0:vgt     = 300.0000m 0:vinn    = 500.0000m 0:vinp    = 500.0000m
 +0:vss     =   0.     


 ****  voltage sources

 subckt                                                                    
 element  0:vd       0:vs       0:vb       0:vinp     0:vinn     0:vout    
  volts      1.0000     0.       700.0000m  500.0000m  500.0000m  800.0000m
  current  -93.4209n  181.1277n    0.         0.         0.       -65.8953n
  power     93.4209n    0.         0.         0.         0.        52.7163n

 subckt                        
 element  0:vtg      0:vtd     
  volts    300.0000m  200.0000m
  current    0.       -21.8115n
  power      0.         4.3623n

     total voltage source power dissipation=  150.4995n       watts




 **** mosfets


 subckt                                                                    
 element  0:m1       0:m2       0:m5       0:m6       0:mb       0:mt      
 model    0:pch.8    0:pch.8    0:nch.8    0:nch.8    0:pch.3    0:nch.12  
 region       Cutoff     Cutoff     Cutoff     Cutoff     Cutoff     Cutoff
  id       -68.8106n  -24.6082n   68.8120n   90.5020n  -93.4194n   21.8111n
  ibs      1.092e-23  3.905e-24 -1.342e-23 -1.765e-23  1.359e-23 -4.849e-24
  ibd       16.4204a    7.7293a   -6.6320a   -7.2008f  103.7585a   -4.1983a
  vgs     -316.3465m -316.3465m  312.3256m  312.3256m -300.0000m  300.0000m
  vds     -504.0209m  -16.3465m  312.3256m  800.0000m -183.6535m  200.0000m
  vbs        0.         0.         0.         0.         0.         0.     
  vth     -500.9611m -502.7719m  523.9037m  522.6808m -458.7470m  532.2908m
  vdsat    -42.2088m  -42.1468m   41.3236m   41.3355m  -41.3235m   42.0362m
  vod      184.6146m  186.4254m -211.5781m -210.3553m  158.7470m -232.2908m
  beta       2.6870m    2.6859m    4.8604m    4.8615m    2.9844m    2.6389m
  gam eff  645.9642m  645.9642m  907.4311m  907.4311m  497.9476m  919.5599m
  gm         1.7997u  650.1483n    1.8241u    2.3933u    2.5297u  586.9304n
  gds       35.4643n    1.1479u   48.2711n   43.4777n   14.8064n   20.0467n
  gmb      622.1231n  228.3799n  556.6403n  720.0810n  840.5480n  182.1134n
  cdtot      7.6566f    8.7356f    2.2890f    2.0862f   55.3718f    1.3764f
  cgtot      6.0349f    6.0340f    2.0702f    2.0703f  102.3205f    1.1566f
  cstot      8.8059f    8.8019f    2.5130f    2.5131f   60.0953f    1.4663f
  cbtot     14.8699f   15.9415f    4.2356f    4.0329f  163.1380f    2.5401f
  cgs        1.9191f    1.9154f  660.8010a  660.9019a   14.2429f  365.3151a
  cgd        1.8956f    1.8982f  657.4960a  657.4947a   13.1085f  364.3003a



 ***************************************************
   ******   pole/zero analysis  
 **warning** underflow 1 time(s) in pole/zero analysis
 **warning** underflow 1 time(s) in pole/zero analysis
 **warning** underflow 1 time(s) in pole/zero analysis
 **warning** underflow 1 time(s) in pole/zero analysis
 **warning** underflow 1 time(s) in pole/zero analysis
 **warning** underflow 1 time(s) in pole/zero analysis
 **warning** underflow 1 time(s) in pole/zero analysis
 
 
    input =  0:vinp          output = v(2)
 
       poles (rad/sec)                 poles ( hertz)
 real            imag            real            imag            
 -52.1413x       0.              -8.29854x       0.              
 -140.598x       0.              -22.3769x       0.              
 
       zeros (rad/sec)                 zeros ( hertz)
 real            imag            real            imag            
 -52.1413x       0.              -8.29854x       0.              
 -140.598x       0.              -22.3769x       0.              
 
  ***** constant factor = 1000.00a

          ***** job concluded
1****** HSPICE -- B-2008.09 32-BIT (Aug 26 2008) winnt ******                   
 ******  
 ***myop_folded

  ******  job statistics summary tnom=  25.000 temp=  25.000 *****

  ******  HSPICE Threads Information  ******
  Command Line Threads Count:                      0
  Available CPU Count:                             4
  Actual Model Evaluation(Load) Threads Count:     1
  Actual Solver Threads Count:                     1


  ******  Circuit Statistics  ******
  # nodes       =      24  # elements   =      15
  # resistors   =       0  # capacitors =       0  # inductors   =       0
  # mutual_inds =       0  # vccs       =       0  # vcvs        =       0
  # cccs        =       0  # ccvs       =       0  # volt_srcs   =       9
  # curr_srcs   =       0  # diodes     =       0  # bjts        =       0
  # jfets       =       0  # mosfets    =       6  # U elements  =       0
  # T elements  =       0  # W elements =       0  # B elements  =       0
  # S elements  =       0  # P elements =       0  # va device   =       0


  ******  Runtime Statistics (seconds)  ******

  analysis           time    # points   tot. iter  conv.iter
  op point           0.05           1          48
  dc sweep           0.01          41         107
  ac analysis        0.04          81          81
  readin             0.20
  errchk             0.02
  setup              0.01
  output             0.00


           total memory used          369  kbytes
           total cpu time            0.36 seconds
           total elapsed time           1 seconds
           job started at     22:42:22 11/26/2015
           job ended   at     22:42:22 11/26/2015


 Init: hspice initialization file: C:\synopsys\Hspice_B-2008.09\hspice.ini
