 ****** HSPICE -- B-2008.09 32-BIT (Aug 26 2008) winnt ******                   
  Copyright (C) 2008 Synopsys, Inc. All Rights Reserved.                        
  Unpublished-rights reserved under US copyright laws.
  This program is protected by law and is subject to the 
  terms and conditions of the license agreement from Synopsys.
  Use of this program is your acceptance to be bound by the 
  license agreement. HSPICE is the trademark of Synopsys, Inc.
  Input File: c:\users\timer\documents\github\hspice\constantfront\cf.sp        
 Init: read install configuration file: C:\synopsys\Hspice_B-2008.09\meta.cfg
 Init: hspice initialization file: C:\synopsys\Hspice_B-2008.09\hspice.ini




 .options abstol=1e-7 reltol=1e-7
 + post=1 captab ingold=1 accurate=1

 * pmos: u0cox /= 8.6e-5
 * nmos: /= 2.0718e-5

 vd vdd gnd dc = 3.3v
 ibias vdd di dc = 100u
 r1 di si 10k
 vin vgin gnd dc = 1v 
 *iin sout gnd dc = 100n pulse(100na 200na 1us 1us 1us 500us 1000us)  
 iin sout gnd dc = 1ua sin(1ua 100na 1000 2ns)
 e1 n- gnd opamp di n-
 e2 si gnd opamp sout si 
 m1 n- vgin sout sb nch w = 1.2u l = 200n
 vbody sb gnd dc = 0v

 *.ic v(sout) = 0v v()

 *****try unit gain buffer*****
 *et 1 gnd opamp 2 1
 *vt 2 gnd dc = 1v
 *rt 1 gnd 1k
 *****try current source*******
 *it vdd 1 dc = 1ma
 *rt 1 gnd 1k


 ***iout measure***
 *hx 20 gnd vcur max=+10 min=-10 100000
 *vcur iout gnd  dc = 0v
 *r1 20 gnd 10k
 ******************
 .op
 *.dc sweep it 0v 1v 0.1v
 *.probe i(rt) v(1)
 .dc iin 1ua 100ua 1ua 
 .tran 1us 2000us  sweep vbody 0v 1v 0.5v
 .meas tran maxamplitude max v(sout)
 .meas tran minamplitude min v(sout)
 .meas tran amplitude param = ('maxamplitude - minamplitude')
 .probe v(sout) i(iin) lx7(m1)
 .end

 ***********************************************************************
 ** runlvl is invoked, you can disable it by:
      a) Add option runlvl=0 to your current simulation job.
      b) Copy $installdir/hspice.ini to your HOME directory and
         customize it by adding option runlvl=0, which disables
         it for all of your simulation jobs.
      c) Re-invoke $installdir/bin/config program and unselect the
         option runlvl setting in box 'hspice.ini' which disables
         it for whole group simulation jobs.

 ** runlvl is invoked, some options are ignored or automatically set:
      Options below are automatically set(user setting will overwrite them):
      if runlvl=[1|2|3|4|5|6],  .option bypass=2

      Options below are ignored, they are replaced by automated algorithms:
        lvltim    dvdt      ft    fast   trtol  absvar  relvar
          relq  chgtol    dvtr    imin    itl3    rmax

 ** runlvl is invoked, actual option value used by HSPICE are:
       runlvl= 5       bypass= 2      mbypass=   2.00   bytol= 100.00n
 ***********************************************************************

 

 
      
1****** HSPICE -- B-2008.09 32-BIT (Aug 26 2008) winnt ******                   
 ******  
 *cf

  ******  operating point information tnom=  25.000 temp=  25.000 *****
 ***** operating point status is all       simulation time is     0.     
    node    =voltage      node    =voltage      node    =voltage

 +0:di      =   1.4516  0:n-      =   1.4516  0:sb      =   0.     
 +0:si      =   0.4516  0:sout    =   0.4516  0:vdd     =   3.3000 
 +0:vgin    =   1.0000 


 maximum nodal capacitance=   2.403E-15         on node     0:sb              

    nodal  capacitance table 

    node    =    cap      node    =    cap      node    =    cap

 +0:di      =   0.      0:n-      = 1.326e-15 0:sb      = 2.403e-15
 +0:si      =   0.      0:sout    = 1.591e-15 0:vdd     =   0.     
 +0:vgin    = 1.340e-15

 

 ****  voltage sources

 subckt                                   
 element  0:vd       0:vin      0:vbody   
  volts      3.3000     1.0000     0.     
  current -1.000e-04    0.       4.090e-12
  power    3.300e-04    0.         0.     

     total voltage source power dissipation=  3.300e-04       watts



 ***** current sources

 subckt                        
 element  0:ibias    0:iin     
  volts      1.8484     0.4516 
  current  1.000e-04  1.000e-06
  power   -1.848e-04 -4.516e-07


     total current source power dissipation=-1.853e-04       watts

 **** resistors

 subckt             
 element  0:r1      
  r value  1.000e+04
  v drop     1.0000 
  current  1.000e-04
  power    1.000e-04


 **** voltage-controlled voltage sources


 subckt                        
 element  0:e1       0:e2      
  volts      1.4516     0.4516 
  current -1.000e-06  1.000e-04





 **** mosfets


 subckt             
 element  0:m1      
 model    0:nch.8   
 region       Cutoff
  id       1.000e-06
  ibs     -4.808e-18
  ibd     -2.187e-12
  vgs        0.5484 
  vds        1.0000 
  vbs       -0.4516 
  vth        0.6465 
  vdsat    4.881e-02
  vod     -9.814e-02
  beta     3.106e-03
  gam eff    0.9644 
  gm       2.204e-05
  gds      4.946e-07
  gmb      4.953e-06
  cdtot    1.326e-15
  cgtot    1.340e-15
  cstot    1.591e-15
  cbtot    2.403e-15
  cgs      4.898e-16
  cgd      4.373e-16



1****** HSPICE -- B-2008.09 32-BIT (Aug 26 2008) winnt ******                   
 ******  
 *cf

  ******  transient analysis tnom=  25.000 temp=  25.000 *****
 ***** operating point status is voltage   simulation time is     0.     

   *** source        0:vbody            =    0.000E+00 ***

    node    =voltage      node    =voltage      node    =voltage

 +0:di      =   1.4516  0:n-      =   1.4516  0:sb      =   0.     
 +0:si      =   0.4516  0:sout    =   0.4516  0:vdd     =   3.3000 
 +0:vgin    =   1.0000 


 maximum nodal capacitance=   2.403E-15         on node     0:sb              

    nodal  capacitance table 

    node    =    cap      node    =    cap      node    =    cap

 +0:di      =   0.      0:n-      = 1.326e-15 0:sb      = 2.403e-15
 +0:si      =   0.      0:sout    = 1.591e-15 0:vdd     =   0.     
 +0:vgin    = 1.340e-15

 
 ******  
 *cf

  ******  transient analysis tnom=  25.000 temp=  25.000 *****
   maxamplitude=  4.5552E-01    at=  7.5000E-04
               from=  0.0000E+00    to=  2.0000E-03
   minamplitude=  4.4808E-01    at=  1.2500E-03
               from=  0.0000E+00    to=  2.0000E-03
   amplitude=  7.4324E-03

          ***** job concluded
1****** HSPICE -- B-2008.09 32-BIT (Aug 26 2008) winnt ******                   
 ******  
 *cf

  ******  transient analysis tnom=  25.000 temp=  25.000 *****
 ***** operating point status is voltage   simulation time is     0.     

   *** source        0:vbody            =    5.000E-01 ***

    node    =voltage      node    =voltage      node    =voltage

 +0:di      =   1.5526  0:n-      =   1.5526  0:sb      =   0.5000 
 +0:si      =   0.5526  0:sout    =   0.5526  0:vdd     =   3.3000 
 +0:vgin    =   1.0000 


 maximum nodal capacitance=   2.692E-15         on node     0:sb              

    nodal  capacitance table 

    node    =    cap      node    =    cap      node    =    cap

 +0:di      =   0.      0:n-      = 1.387e-15 0:sb      = 2.692e-15
 +0:si      =   0.      0:sout    = 1.766e-15 0:vdd     =   0.     
 +0:vgin    = 1.400e-15

 
 ******  
 *cf

  ******  transient analysis tnom=  25.000 temp=  25.000 *****
   maxamplitude=  5.5636E-01    at=  7.5000E-04
               from=  0.0000E+00    to=  2.0000E-03
   minamplitude=  5.4922E-01    at=  2.5000E-04
               from=  0.0000E+00    to=  2.0000E-03
   amplitude=  7.1441E-03

          ***** job concluded
1****** HSPICE -- B-2008.09 32-BIT (Aug 26 2008) winnt ******                   
 ******  
 *cf

  ******  transient analysis tnom=  25.000 temp=  25.000 *****
 ***** operating point status is voltage   simulation time is     0.     

   *** source        0:vbody            =    1.000E+00 ***

    node    =voltage      node    =voltage      node    =voltage

 +0:di      =   1.6497  0:n-      =   1.6497  0:sb      =   1.0000 
 +0:si      =   0.6497  0:sout    =   0.6497  0:vdd     =   3.3000 
 +0:vgin    =   1.0000 


 maximum nodal capacitance=   2.834E-15         on node     0:sb              

    nodal  capacitance table 

    node    =    cap      node    =    cap      node    =    cap

 +0:di      =   0.      0:n-      = 1.472e-15 0:sb      = 2.834e-15
 +0:si      =   0.      0:sout    = 2.018e-15 0:vdd     =   0.     
 +0:vgin    = 1.473e-15

 
 ******  
 *cf

  ******  transient analysis tnom=  25.000 temp=  25.000 *****
   maxamplitude=  6.5379E-01    at=  1.7500E-03
               from=  0.0000E+00    to=  2.0000E-03
   minamplitude=  6.4590E-01    at=  1.2500E-03
               from=  0.0000E+00    to=  2.0000E-03
   amplitude=  7.8903E-03

   meas_variable = maxamplitude
   mean  =   0.5552   varian = 9.829e-03
   sigma = 9.914e-02  avgdev = 6.647e-02
   max   =   0.6538   min    =   0.4555 
    1-sigma = 9.914e-02 median =   0.6538 

   meas_variable = minamplitude
   mean  =   0.5477   varian = 9.784e-03
   sigma = 9.892e-02  avgdev = 6.643e-02
   max   =   0.6459   min    =   0.4481 
    1-sigma = 9.892e-02 median =   0.6459 

   meas_variable = amplitude
   mean  = 7.489e-03  varian = 1.416e-07
   sigma = 3.763e-04  avgdev = 2.676e-04
   max   = 7.890e-03  min    = 7.144e-03
    1-sigma = 3.763e-04 median = 7.890e-03
 

          ***** job concluded
1****** HSPICE -- B-2008.09 32-BIT (Aug 26 2008) winnt ******                   
 ******  
 *cf

  ******  job statistics summary tnom=  25.000 temp=  25.000 *****

  ******  HSPICE Threads Information  ******
  Command Line Threads Count:                      0
  Available CPU Count:                             4
  Actual Model Evaluation(Load) Threads Count:     1
  Actual Solver Threads Count:                     1


  ******  Circuit Statistics  ******
  # nodes       =      10  # elements   =       9
  # resistors   =       1  # capacitors =       0  # inductors   =       0
  # mutual_inds =       0  # vccs       =       0  # vcvs        =       2
  # cccs        =       0  # ccvs       =       0  # volt_srcs   =       3
  # curr_srcs   =       2  # diodes     =       0  # bjts        =       0
  # jfets       =       0  # mosfets    =       1  # U elements  =       0
  # T elements  =       0  # W elements =       0  # B elements  =       0
  # S elements  =       0  # P elements =       0  # va device   =       0


  ******  Runtime Statistics (seconds)  ******

  analysis           time    # points   tot. iter  conv.iter
  op point           0.02           1          30
  dc sweep           0.01         100         227
  transient          0.13        6003         288         144 rev=         0
  readin             0.18
  errchk             0.01
  setup              0.01
  output             0.00


           total memory used          210  kbytes
           total cpu time            0.43 seconds
           total elapsed time           1 seconds
           job started at     17:19:20 10/01/2015
           job ended   at     17:19:21 10/01/2015


 Init: hspice initialization file: C:\synopsys\Hspice_B-2008.09\hspice.ini
