 ****** HSPICE -- B-2008.09 32-BIT (Aug 26 2008) winnt ******                   
  Copyright (C) 2008 Synopsys, Inc. All Rights Reserved.                        
  Unpublished-rights reserved under US copyright laws.
  This program is protected by law and is subject to the 
  terms and conditions of the license agreement from Synopsys.
  Use of this program is your acceptance to be bound by the 
  license agreement. HSPICE is the trademark of Synopsys, Inc.
  Input File: c:\users\timer\documents\github\hspice\sourcefollower-sub\sourcefo
 Init: read install configuration file: C:\synopsys\Hspice_B-2008.09\meta.cfg
 Init: hspice initialization file: C:\synopsys\Hspice_B-2008.09\hspice.ini




 .options abstol=1e-7 reltol=1e-7
 + post=1 captab accurate=1 ingold=1
 ***netlist***

 m1 vdd vg vs gnd nch w = 500n l = 200n
 vd vdd gnd dc = 0.6v
 i1 gnd vs dc = 1ua sin(1ua 100na 10k 1ns)
 vin vg gnd dc = 0.4v


 .op
 .tran 1us 2ms 

 ***********************************************************************
 ** runlvl is invoked, you can disable it by:
      a) Add option runlvl=0 to your current simulation job.
      b) Copy $installdir/hspice.ini to your HOME directory and
         customize it by adding option runlvl=0, which disables
         it for all of your simulation jobs.
      c) Re-invoke $installdir/bin/config program and unselect the
         option runlvl setting in box 'hspice.ini' which disables
         it for whole group simulation jobs.

 ** runlvl is invoked, some options are ignored or automatically set:
      Options below are automatically set(user setting will overwrite them):
      if runlvl=[1|2|3|4|5|6],  .option bypass=2

      Options below are ignored, they are replaced by automated algorithms:
        lvltim    dvdt      ft    fast   trtol  absvar  relvar
          relq  chgtol    dvtr    imin    itl3    rmax

 ** runlvl is invoked, actual option value used by HSPICE are:
       runlvl= 5       bypass= 2      mbypass=   2.00   bytol= 100.00n
 ***********************************************************************

 

 
      
1****** HSPICE -- B-2008.09 32-BIT (Aug 26 2008) winnt ******                   
 ******  
 *sourcefollower-sub

  ******  operating point information tnom=  25.000 temp=  25.000 *****
 ***** operating point status is all       simulation time is     0.     
    node    =voltage      node    =voltage      node    =voltage

 +0:vdd     =   0.6000  0:vg      =   0.4000  0:vs      =  63.9605 


 maximum nodal capacitance=   7.011E-16         on node     0:vdd             

    nodal  capacitance table 

    node    =    cap      node    =    cap      node    =    cap

 +0:vdd     = 7.011e-16 0:vg      = 5.666e-16 0:vs      = 3.499e-16

 

 ****  voltage sources

 subckt                        
 element  0:vd       0:vin     
  volts      0.6000     0.4000 
  current  9.270e-07    0.     
  power   -5.562e-07    0.     

     total voltage source power dissipation= -5.562e-07       watts



 ***** current sources

 subckt             
 element  0:i1      
  volts    -63.9605 
  current  1.000e-06
  power    6.396e-05


     total current source power dissipation= 6.396e-05       watts


 **** mosfets


 subckt             
 element  0:m1      
 model    0:nch.12  
 region       Cutoff
  id      -9.269e-07
  ibs     -7.295e-08
  ibd     -2.680e-18
  vgs      -63.5605 
  vds      -63.3605 
  vbs      -63.9605 
  vth        0.2075 
  vdsat    4.502e-02
  vod      -63.7681 
  beta     1.368e-03
  gam eff    0.9383 
  gm       2.792e-05
  gds      2.381e-07
  gmb        0.     
  cdtot    7.011e-16
  cgtot    5.666e-16
  cstot    3.499e-16
  cbtot    8.934e-16
  cgs      1.811e-16
  cgd      1.811e-16




          ***** job concluded
1****** HSPICE -- B-2008.09 32-BIT (Aug 26 2008) winnt ******                   
 ******  
 *sourcefollower-sub

  ******  job statistics summary tnom=  25.000 temp=  25.000 *****

  ******  HSPICE Threads Information  ******
  Command Line Threads Count:                      0
  Available CPU Count:                             4
  Actual Model Evaluation(Load) Threads Count:     1
  Actual Solver Threads Count:                     1


  ******  Circuit Statistics  ******
  # nodes       =       6  # elements   =       4
  # resistors   =       0  # capacitors =       0  # inductors   =       0
  # mutual_inds =       0  # vccs       =       0  # vcvs        =       0
  # cccs        =       0  # ccvs       =       0  # volt_srcs   =       2
  # curr_srcs   =       1  # diodes     =       0  # bjts        =       0
  # jfets       =       0  # mosfets    =       1  # U elements  =       0
  # T elements  =       0  # W elements =       0  # B elements  =       0
  # S elements  =       0  # P elements =       0  # va device   =       0


  ******  Runtime Statistics (seconds)  ******

  analysis           time    # points   tot. iter  conv.iter
  op point           0.00           1          27
  transient          0.06        2001        2139         929 rev=       140
  readin             0.22
  errchk             0.02
  setup              0.02
  output             0.00


           total memory used          205  kbytes
           total cpu time            0.33 seconds
           total elapsed time           1 seconds
           job started at     11:32:45 10/22/2015
           job ended   at     11:32:45 10/22/2015


 Init: hspice initialization file: C:\synopsys\Hspice_B-2008.09\hspice.ini
