 ****** HSPICE -- B-2008.09 32-BIT (Aug 26 2008) winnt ******                   
  Copyright (C) 2008 Synopsys, Inc. All Rights Reserved.                        
  Unpublished-rights reserved under US copyright laws.
  This program is protected by law and is subject to the 
  terms and conditions of the license agreement from Synopsys.
  Use of this program is your acceptance to be bound by the 
  license agreement. HSPICE is the trademark of Synopsys, Inc.
  Input File: c:\users\timer\documents\github\hspice\researchtry\stacktest\stack
 Init: read install configuration file: C:\synopsys\Hspice_B-2008.09\meta.cfg
 Init: hspice initialization file: C:\synopsys\Hspice_B-2008.09\hspice.ini




 .option post acout=0 accurate dcon=1 converge=1 gmindc= 1.0000e-12  unwrap = 1
 +captab = 1 
 ***op***
 .subckt	op	vdd	vss	vinn	vinp	vop	b0	b1	
 mb	b	b0		vdd	vdd	pch	w = 10u  l = 1u	  m = 2
 m1	1	vinn	b		b		pch	w = 30u l = 0.4u m = 2
 m2	2	vinp	b		b		pch	w = 30u l = 0.4u m = 2
 m5	1	b1		vss	vss	nch	w = 13u l = 0.4u m = 1
 m6	2	b1		vss	vss	nch	w = 13u l = 0.4u m = 1
 m3	von	1		vdd	vdd	pch	w = 18u    l = 1u m = 1
 m4	vop	2		vdd	vdd	pch w = 17.83u l = 1u m = 1
 m7	von	von	vss	vss	nch	w = 3.8u   l = 1u m = 1	
 m8	vop	von	vss	vss	nch	w = 3.7u   l = 1u m = 1
 c1	z1		von 400f
 rz1	z1		1   350k
 c2	2			vop 900f
 .ends

 ***netlist***
 mp	inx	vb	vdd	vdd pch	w = 11u l = 0.2u    
 ibi vdd	vdnw dc = 86.0773n ac = 1
 mnw	vdnw	vg	vss	vss nch	w = 2.5u l = 0.2u
 ms	inx	b3	vdnw	vdnw	nch w = 2.5u l = 0.2u
 xopf	vdd	vss	vinn	vinp	vop	b0	b1	op






 ***param***
 .param 
 +bias			= 0.6
 +bias2		= 0.3
 +bias3		= 0.6
 ***connection source***
 vx		vinp	inx dc = 0		*opf input and inx
 vy		vop		vg  dc = 0		*opf output and nw_vg

 ***source***
 vd		vdd	gnd dc = 1v
 vs		vss	gnd dc = 0v
 vbias	vb	gnd dc = 0.7v		*pmos for bias current
 vb 		b0		gnd dc bias		*op bias1
 vb1		b1		gnd dc bias2	*op bias2
 vb3		b3		gnd dc bias3

 vref	vinn	gnd dc = 0.5



 ***
 .op
 .dc ibi dec 10 1n	10u
 .ac dec 100 0.1	1000g *sweep rr poi 3 1x 10x 1g
 .probe ac vdb(inx) vdb(vg) i(mnw) 
 .probe dc i(mnw) lx8(mnw) lx8(ms) i(ms) rdsenl = par('lx7(ms)/lx8(ms)')
 .end                     


 **warning**  the accurate option increases  the cpu time but the results
                are more accurate.
 ***accurate option sets default value of the options: 
 lvltim= 4         dvdt= 3       relvar= 200.00m absvar= 200.00m
     ft= 200.00m relmos=  10.00m
 (used for FFT control ) fft_accurate= 1
1****** HSPICE -- B-2008.09 32-BIT (Aug 26 2008) winnt ******                   
 ******  
 *stacktest

  ******  circuit name directory
 circuit number to circuit name directory
   number circuitname                     definition         multiplier
        0 main circuit
        1 xopf.                           op                 1.00 
 

 
      
  Opening plot unit= 79
 file=c:\users\timer\documents\github\hspice\researchtry\stacktest\stacktest.pa

  *** initial damped pseudo transient completed. ***
  *** final try started ***
1****** HSPICE -- B-2008.09 32-BIT (Aug 26 2008) winnt ******                   
 ******  
 *stacktest

  ******  operating point information tnom=  25.000 temp=  25.000 *****
 ***** operating point status is all       simulation time is     0.     
    node    =voltage      node    =voltage      node    =voltage

 +0:b0      = 600.0000m 0:b1      = 300.0000m 0:b3      = 600.0000m
 +0:inx     = 499.9711m 0:vb      = 700.0000m 0:vdd     =   1.0000 
 +0:vdnw    = 292.6916m 0:vg      = 331.1694m 0:vinn    = 500.0000m
 +0:vinp    = 499.9711m 0:vop     = 331.1694m 0:vss     =   0.     
 +1:1       = 601.6222m 1:2       = 603.0284m 1:b       = 797.6662m
 +1:von     = 398.9721m 1:z1      = 601.6222m


 maximum nodal capacitance=   1.048E-12         on node     1:2               

    nodal  capacitance table 

    node    =    cap      node    =    cap      node    =    cap

 +0:b0      =  58.6118f 0:b1      =  37.9046f 0:b3      =   2.8675f
 +0:inx     =  17.2823f 0:vb      =  11.4399f 0:vdd     = 386.8601f
 +0:vdnw    =  12.4004f 0:vg      =   2.8624f 0:vinn    =  84.7993f
 +0:vinp    =  84.7991f 0:vop     = 926.4926f 0:vss     = 146.9796f
 +1:1       = 149.0621f 1:2       =   1.0483p 1:b       = 553.2201f
 +1:von     = 447.3371f 1:z1      = 400.0000f

 

 ****  voltage sources

 subckt                                                                    
 element  0:vx       0:vy       0:vd       0:vs       0:vbias    0:vb      
  volts      0.         0.         1.0000     0.       700.0000m  600.0000m
  current    0.      -222.0446a   -1.7112u    1.7112u    0.         0.     
  power      0.         0.         1.7112u    0.         0.         0.     

 subckt                                   
 element  0:vb1      0:vb3      0:vref    
  volts    300.0000m  600.0000m  500.0000m
  current    0.         0.         0.     
  power      0.         0.         0.     

     total voltage source power dissipation=    1.7112u       watts



 ***** current sources

 subckt             
 element  0:ibi     
  volts    707.3084m
  current   86.0773n
  power    -60.8832n


     total current source power dissipation= -60.8832n       watts

 **** resistors

 subckt   xopf      
 element  1:rz1     
  r value  350.0000k
  v drop     0.     
  current    0.     
  power      0.     



 **** mosfets


 subckt                                    xopf       xopf       xopf      
 element  0:mp       0:mnw      0:ms       1:mb       1:m1       1:m2      
 model    0:pch.4    0:nch.8    0:nch.8    0:pch.3    0:pch.4    0:pch.4   
 region       Cutoff     Cutoff     Cutoff     Cutoff     Cutoff     Cutoff
  id       -86.0771n  172.1548n   86.0777n -554.8349n -277.3726n -277.4616n
  ibs      1.248e-23 -3.193e-23 -1.597e-23  8.073e-23  3.936e-23  3.938e-23
  ibd       28.4605a   -8.7599a   -8.7573a   51.9013a  151.8468a  151.8426a
  vgs     -300.0000m  331.1694m  307.3084m -400.0000m -297.6662m -297.6951m
  vds     -500.0289m  292.6916m  207.2795m -202.3338m -196.0440m -194.6378m
  vbs        0.         0.         0.         0.         0.         0.     
  vth     -501.3813m  519.4893m  519.7036m -458.7427m -471.6909m -471.6920m
  vdsat    -42.2998m   41.3315m   41.0124m  -51.3038m  -41.5021m  -41.5027m
  vod      201.3813m -188.3198m -212.3952m   58.7427m  174.0247m  173.9969m
  beta       5.3236m    6.8699m    6.8699m    1.4883m   11.7361m   11.7361m
  gam eff  647.5761m  897.6890m  897.6890m  497.9476m  541.3676m  541.3676m
  gm         2.2897u    4.4485u    2.2891u   12.4563u    7.4887u    7.4908u
  gds       46.5823n  123.6833n   75.5711n   79.4971n   90.3526n   90.8283n
  gmb      788.8360n    1.3377u  694.0981n    4.0970u    2.5197u    2.5204u
  cdtot     14.0761f    3.1362f    3.2062f   27.5779f   82.0460f   82.0782f
  cgtot     11.4399f    2.8624f    2.8675f   58.6118f   84.7993f   84.7991f
  cstot     16.1411f    3.4335f    3.4278f   44.8448f   87.8160f   87.8165f
  cbtot     27.1844f    5.7583f    5.8364f   80.8326f  174.9890f  175.0207f
  cgs        3.6330f  922.9811a  918.5229a   18.8854f   20.1828f   20.1833f
  cgd        3.6044f  914.0378a  914.0472a    6.5675f   19.6732f   19.6732f



 subckt   xopf       xopf       xopf       xopf       xopf       xopf      
 element  1:m5       1:m6       1:m3       1:m4       1:m7       1:m8      
 model    0:nch.4    0:nch.4    0:pch.3    0:pch.3    0:nch.7    0:nch.7   
 region       Cutoff     Cutoff     Cutoff     Cutoff     Cutoff     Cutoff
  id       277.3722n  277.4611n -500.8260n -483.4216n  500.8264n  483.4223n
  ibs     -4.595e-23 -4.596e-23  7.167e-23  6.920e-23 -8.869e-23 -8.582e-23
  ibd     -107.7708a -111.5567a   45.9633a   45.5385a  -12.7122a  -12.4081a
  vgs      300.0000m  300.0000m -398.3778m -396.9716m  398.9721m  398.9721m
  vds      601.6222m  603.0284m -601.0279m -668.8306m  398.9721m  331.1694m
  vbs        0.         0.         0.         0.         0.         0.     
  vth      491.0351m  491.0342m -458.6508m -458.6352m  483.5632m  483.5886m
  vdsat     43.9133m   43.9133m  -50.9916m  -50.7137m   58.1478m   58.1360m
  vod     -191.0351m -191.0342m   60.2730m   61.6636m  -84.5911m  -84.6166m
  beta      15.0987m   15.0987m    1.3402m    1.3277m    1.5707m    1.5278m
  gam eff  556.1233m  556.1233m  497.9476m  497.9476m  519.2085m  519.5326m
  gm         7.5272u    7.5296u   11.2599u   10.8944u   10.8921u   10.5191u
  gds       63.2922n   63.2709n   42.9329n   40.9769n   50.5241n   53.7844n
  gmb        2.1699u    2.1705u    3.7050u    3.5852u    3.1563u    3.0487u
  cdtot     14.6913f   14.6875f   22.4626f   21.9640f    4.5756f    4.5286f
  cgtot     18.9523f   18.9523f   52.3247f   51.5401f   10.2832f   10.0157f
  cstot     17.2107f   17.2107f   39.6603f   38.7785f    6.5220f    6.3532f
  cbtot     31.6670f   31.6633f   70.1877f   69.2306f   13.7207f   13.4401f
  cgs        4.8321f    4.8321f   16.4915f   15.9282f    2.4071f    2.3438f
  cgd        4.7623f    4.7623f    5.8996f    5.8437f    1.3906f    1.3541f




          ***** job concluded
1****** HSPICE -- B-2008.09 32-BIT (Aug 26 2008) winnt ******                   
 ******  
 *stacktest

  ******  job statistics summary tnom=  25.000 temp=  25.000 *****

  ******  HSPICE Threads Information  ******
  Command Line Threads Count:                      0
  Available CPU Count:                             4
  Actual Model Evaluation(Load) Threads Count:     1
  Actual Solver Threads Count:                     1


  ******  Circuit Statistics  ******
  # nodes       =      44  # elements   =      27
  # resistors   =       1  # capacitors =       2  # inductors   =       0
  # mutual_inds =       0  # vccs       =       0  # vcvs        =       0
  # cccs        =       0  # ccvs       =       0  # volt_srcs   =      11
  # curr_srcs   =       1  # diodes     =       0  # bjts        =       0
  # jfets       =       0  # mosfets    =      12  # U elements  =       0
  # T elements  =       0  # W elements =       0  # B elements  =       0
  # S elements  =       0  # P elements =       0  # va device   =       0


  ******  Runtime Statistics (seconds)  ******

  analysis           time    # points   tot. iter  conv.iter
  op point           0.03           1         138
  dc sweep           0.02          41         129
  ac analysis        0.11        1301        1301
  readin             0.19
  errchk             0.02
  setup              0.04
  output             0.00


           total memory used          403  kbytes
           total cpu time            0.43 seconds
           total elapsed time           1 seconds
           job started at     21:36:55 12/18/2015
           job ended   at     21:36:56 12/18/2015


 Init: hspice initialization file: C:\synopsys\Hspice_B-2008.09\hspice.ini
