 ****** HSPICE -- B-2008.09 32-BIT (Aug 26 2008) winnt ******                   
  Copyright (C) 2008 Synopsys, Inc. All Rights Reserved.                        
  Unpublished-rights reserved under US copyright laws.
  This program is protected by law and is subject to the 
  terms and conditions of the license agreement from Synopsys.
  Use of this program is your acceptance to be bound by the 
  license agreement. HSPICE is the trademark of Synopsys, Inc.
  Input File: c:\users\timer\documents\github\hspice\pwmadc\ota\ota.sp          
 Init: read install configuration file: C:\synopsys\Hspice_B-2008.09\meta.cfg
 Init: hspice initialization file: C:\synopsys\Hspice_B-2008.09\hspice.ini




 .option brief = 1
 .options abstol=1e-7 reltol=1e-7
 + post=1 captab accurate=1 ingold=1

 * pmos: u0cox /= 8.6e-5
 * nmos: /= 2.0718e-5

 xwlr_outter	vdd	vssno	vsspo	wgn	wgp	iout	wlr_outter	wp = 1u	wn = 400n	mp = 2	mn = 2
 xwlr_innerp	vdd	vssp	winp	wgp	ib	wlr_inner	wp = 1u wn = 400n	mp = 1 mn = 1
 xwlr_innern vdd	vssn	winn	wgn	ib	wlr_inner	wp = 1u wn = 400n	mp = 1 mn = 1
 mb	ib vb vdd vdd pch w = 2u l = 200n
 xbump	ib	vssb	wgp		wgn	bump	wn1 = 400n wn2 = 400n	m1 = 4 m2 = 4


 .subckt	wlr_outter	vdd	vssno	vsspo	inn	inp	iout	wp = 1.2u wn = 400n	mp = 2 mn = 2
 m1 1d 1d vdd vdd pch w = wp l = 200n m = mp
 m3 iout 1d vdd vdd pch w = wp l = 200n m = mp
 m2 1d inn vssno vssno nch w = wn l = 200n m = mn
 m4 iout inp vsspo vsspo nch w = wn l = 200n m = mn
 .ends

 .subckt wlr_inner vdd vss win wg ib	wp = 1.2u wn = 400n	mp = 1 mn = 1
 ms sd sd ib ib pch w = wp l = 200n	m = mp
 mw wg wg sd win pch w = wp l = 200n	m = mp
 mgm wg wg vss vss nch w = wn l = 200n	m = mn
 .ends

 .subckt bump ib vss wgp wgn wn1 = 400n wn2 = 400n	m1 = 4 m2 = 4
 mb1 ib wgn 1 vss nch w = wn1 l = 200n m = m1
 mb2 1 wgp vss vss nch w = wn2 l = 200n m = m2
 .ends




 .param vd = 1.8v
 vd vdd gnd dc = vd
 *vs vss gnd dc = 0v
 vsp vssp gnd dc = 0v
 vsn vssn gnd dc = 0v
 vsb vssb gnd dc = 0v
 vsno	vssno	gnd	dc = 0v
 vspo	vsspo	gnd	dc = 0v
 vbias vb gnd dc = 'vd - 0.3v' pulse('vd - 0.3v' 0v 1ns 1ns 1ns 40ns 100ns)

 .param 
 +vdc = 'vd/2'	
 +diff = 0.5	
 +vdiff = 1.4v	
 +diff_a = 1

 vinp winp gnd dc = 'vdc + vdiff/2' ac = diff_a
 vinn winn gnd dc = 'vdc - vdiff/2 '*ac = '-diff_a'
 *vinn winn iout dc = 0
 *cl iout gnd 1p

 ***iout measure***
 .param ro = 1x
 vout	iout	gnd	dc = 0.9
 *e1	gnd	vout	opamp	vr	iout
 *ro1	iout	gnd	ro
 *ro2	vout	gnd ro
 *e2	vr	gnd		vcvs	iout	gnd	1
 *hx 20 gnd vcvs max=+10 min=-10 100000
 *vcur iout gnd  dc = 0v
 *r1 20 gnd 10k
 ******************
 .op
 .dc vdiff '-vd' 'vd' 0.01 *sweep ro 1x 3x 1x
 .ac dec 10 1 1meg 
 .tran 1ns 300ns 
 .probe dc i(mb) i(vout)
 +i(xwlr_outter.m3) i(xwlr_outter.m4) i(xwlr_innerp.mgm) ienlarge_p = par('i(xwlr_outter.m4)/i(xwlr_innerp.mgm)')
 +i(xwlr_outter.m1) i(xwlr_outter.m2) i(xwlr_innern.mgm) ienlarge_n = par('i(xwlr_outter.m2)/i(xwlr_innern.mgm)')
 +idiff_inner = par('i(vsn)-i(vsp)')	
 +idiff_outter = par('i(vsno)-i(vspo)')
 +ioutib = par('idiff_outter/i(mb)')
 .probe ac i(mb) i(xwlr_innerp.mgm) vdb(iout)
 .pz v(iout)	vinp

 *.probe  isub(xbump.ib)
 *+ v(20)    *use the current controlled voltage source(h element) ouput to sense current(x e5)
 .end

 ***********************************************************************
 ** runlvl is invoked, you can disable it by:
      a) Add option runlvl=0 to your current simulation job.
      b) Copy $installdir/hspice.ini to your HOME directory and
         customize it by adding option runlvl=0, which disables
         it for all of your simulation jobs.
      c) Re-invoke $installdir/bin/config program and unselect the
         option runlvl setting in box 'hspice.ini' which disables
         it for whole group simulation jobs.

 ** runlvl is invoked, some options are ignored or automatically set:
      Options below are automatically set(user setting will overwrite them):
      if runlvl=[1|2|3|4|5|6],  .option bypass=2

      Options below are ignored, they are replaced by automated algorithms:
        lvltim    dvdt      ft    fast   trtol  absvar  relvar
          relq  chgtol    dvtr    imin    itl3    rmax

 ** runlvl is invoked, actual option value used by HSPICE are:
       runlvl= 5       bypass= 2      mbypass=   2.00   bytol= 100.00n
 ***********************************************************************

 ****** HSPICE -- B-2008.09 32-BIT (Aug 26 2008) winnt ******                   
 ******  
 *ota

  ******  circuit name directory
 circuit number to circuit name directory
   number circuitname                     definition         multiplier
        0 main circuit
        1 xwlr_outter.                    wlr_outter         1.00 
        2 xwlr_innerp.                    wlr_inner          1.00 
        3 xwlr_innern.                    wlr_inner          1.00 
        4 xbump.                          bump               1.00 
 

 
      
  Opening plot unit= 79
 file=c:\users\timer\documents\github\hspice\pwmadc\ota\ota.pa0                

 ****** HSPICE -- B-2008.09 32-BIT (Aug 26 2008) winnt ******                   
 ******  
 *ota

  ******  operating point information tnom=  25.000 temp=  25.000 *****
 ***** operating point status is all       simulation time is     0.     
    node    =voltage      node    =voltage      node    =voltage

 +0:ib      =   0.8641  0:iout    =   0.9000  0:vb      =   1.5000 
 +0:vdd     =   1.8000  0:vssb    =   0.      0:vssn    =   0.     
 +0:vssno   =   0.      0:vssp    =   0.      0:vsspo   =   0.     
 +0:wgn     =   0.2939  0:wgp     =   0.1731  0:winn    =   0.2000 
 +0:winp    =   1.6000  1:1d      =   1.4447  2:sd      =   0.6533 
 +3:sd      =   0.5314  4:1       =   0.1071 


 maximum nodal capacitance=   2.587E-14         on node     0:vdd             

    nodal  capacitance table 

    node    =    cap      node    =    cap      node    =    cap

 +0:ib      = 1.383e-14 0:iout    = 3.773e-15 0:vb      = 2.086e-15
 +0:vdd     = 2.587e-14 0:vssb    = 1.208e-14 0:vssn    = 1.874e-15
 +0:vssno   = 3.549e-15 0:vssp    = 1.901e-15 0:vsspo   = 3.632e-15
 +0:wgn     = 6.642e-15 0:wgp     = 6.088e-15 0:winn    = 3.123e-15
 +0:winp    = 2.186e-15 1:1d      = 8.189e-15 2:sd      = 3.906e-15
 +3:sd      = 4.369e-15 4:1       = 5.271e-15

 

 ****  voltage sources

 subckt                                                                    
 element  0:vd       0:vsp      0:vsn      0:vsb      0:vsno     0:vspo    
  volts      1.8000     0.         0.         0.         0.         0.     
  current -1.517e-07  5.188e-10  1.634e-08  1.904e-09  5.834e-08  1.651e-09
  power    2.730e-07    0.         0.         0.         0.         0.     

 subckt                                              
 element  0:vbias    0:vinp     0:vinn     0:vout    
  volts      1.5000     1.6000     0.2000     0.9000 
  current    0.      -2.374e-12  1.809e-12  7.292e-08
  power      0.       3.798e-12 -3.618e-13 -6.563e-08

     total voltage source power dissipation=  2.074e-07       watts




 **** mosfets


 subckt              xwlr_outte xwlr_outte xwlr_outte xwlr_outte xwlr_inner
 element  0:mb       1:m1       1:m3       1:m2       1:m4       2:ms      
 model    0:pch.8    0:pch.12   0:pch.12   0:nch.16   0:nch.16   0:pch.12  
 region       Cutoff     Cutoff     Cutoff     Cutoff     Cutoff     Cutoff
  id      -1.876e-08 -5.834e-08 -7.457e-08  5.833e-08  1.647e-09 -5.160e-10
  ibs      3.133e-24  1.131e-23  1.446e-23 -1.834e-23 -5.185e-25  1.001e-25
  ibd      7.088e-18  6.920e-18  8.353e-18 -9.283e-12 -8.348e-16  3.459e-18
  vgs       -0.3000    -0.3553    -0.3553     0.2939     0.1731    -0.2108 
  vds       -0.9359    -0.3553    -0.9000     1.4447     0.9000    -0.2108 
  vbs        0.         0.         0.         0.         0.         0.     
  vth       -0.4991    -0.5009    -0.4989     0.5191     0.5203    -0.5014 
  vdsat   -4.177e-02 -4.291e-02 -4.307e-02  4.491e-02  4.451e-02 -4.087e-02
  vod        0.1991     0.1456     0.1436    -0.2251    -0.3473     0.2906 
  beta     9.015e-04  8.467e-04  8.471e-04  2.277e-03  2.277e-03  4.234e-04
  gam eff    0.6449     0.6416     0.6416     0.9023     0.9023     0.6416 
  gm       4.925e-07  1.440e-06  1.806e-06  1.520e-06  4.703e-08  1.504e-08
  gds      8.420e-09  3.105e-08  2.995e-08  2.255e-08  7.865e-10  4.212e-10
  gmb      1.702e-07  5.002e-07  6.223e-07  4.266e-07  1.388e-08  5.394e-09
  cdtot    2.485e-15  2.955e-15  2.648e-15  1.055e-15  1.124e-15  1.535e-15
  cgtot    2.086e-15  2.088e-15  2.091e-15  9.202e-16  9.345e-16  1.057e-15
  cstot    3.094e-15  3.308e-15  3.312e-15  1.365e-15  1.364e-15  1.640e-15
  cbtot    5.043e-15  5.710e-15  5.404e-15  2.183e-15  2.268e-15  2.933e-15
  cgs      6.583e-16  6.723e-16  6.759e-16  2.897e-16  2.889e-16  3.249e-16
  cgd      6.527e-16  6.493e-16  6.492e-16  2.888e-16  2.888e-16  3.247e-16



 subckt   xwlr_inner xwlr_inner xwlr_inner xwlr_inner xwlr_inner xbump     
 element  2:mw       2:mgm      3:ms       3:mw       3:mgm      4:mb1     
 model    0:pch.12   0:nch.16   0:pch.12   0:pch.12   0:nch.16   0:nch.16  
 region       Cutoff     Cutoff     Cutoff     Cutoff     Cutoff     Cutoff
  id      -5.169e-10  5.185e-10 -1.634e-08 -1.634e-08  1.634e-08  1.898e-09
  ibs      3.460e-18 -1.631e-25  3.169e-24 -1.383e-12 -5.137e-24 -9.357e-18
  ibd      3.460e-18 -2.373e-18  3.460e-18 -1.306e-16 -2.376e-18 -6.202e-17
  vgs       -0.4803     0.1731    -0.3327    -0.2374     0.2939     0.1868 
  vds       -0.4803     0.1731    -0.3327    -0.2374     0.2939     0.7570 
  vbs        0.9467     0.         0.        -0.3314     0.        -0.1071 
  vth       -0.7661     0.5220    -0.5010    -0.4054     0.5218     0.5493 
  vdsat   -4.382e-02  4.451e-02 -4.203e-02 -4.031e-02  4.488e-02  4.474e-02
  vod        0.2858    -0.3490     0.1683     0.1680    -0.2278    -0.3625 
  beta     3.820e-04  1.139e-03  4.234e-04  4.355e-04  1.139e-03  4.545e-03
  gam eff    0.6400     0.9023     0.6416     0.6422     0.9023     0.9130 
  gm       1.568e-08  1.481e-08  4.187e-07  4.105e-07  4.280e-07  5.494e-08
  gds      4.056e-10  5.676e-10  9.225e-09  9.843e-09  1.267e-08  1.022e-09
  gmb      3.857e-09  4.464e-09  1.460e-07  1.017e-07  1.244e-07  1.505e-08
  cdtot    1.228e-15  6.466e-16  1.486e-15  1.695e-15  6.270e-16  2.260e-15
  cgtot    9.433e-16  4.673e-16  1.043e-15  1.101e-15  4.601e-16  1.839e-15
  cstot    1.314e-15  6.822e-16  1.647e-15  1.840e-15  6.827e-16  2.636e-15
  cbtot    2.186e-15  1.218e-15  2.866e-15  3.123e-15  1.191e-15  4.425e-15
  cgs      3.248e-16  1.444e-16  3.305e-16  5.329e-16  1.448e-16  5.777e-16
  cgd      3.247e-16  1.444e-16  3.247e-16  3.247e-16  1.444e-16  5.776e-16



 subckt   xbump     
 element  4:mb2     
 model    0:nch.16  
 region       Cutoff
  id       1.900e-09
  ibs     -5.974e-25
  ibd     -9.357e-18
  vgs        0.1731 
  vds        0.1071 
  vbs        0.     
  vth        0.5222 
  vdsat    4.451e-02
  vod       -0.3491 
  beta     4.554e-03
  gam eff    0.9023 
  gm       5.427e-08
  gds      3.244e-09
  gmb      1.639e-08
  cdtot    2.636e-15
  cgtot    1.869e-15
  cstot    2.729e-15
  cbtot    4.923e-15
  cgs      5.777e-16
  cgd      5.776e-16



 ***************************************************
   ******   pole/zero analysis  
 **warning** underflow 1 time(s) in pole/zero analysis
 **warning** underflow 1 time(s) in pole/zero analysis
 **warning** underflow 1 time(s) in pole/zero analysis
 **warning** underflow 1 time(s) in pole/zero analysis
 **warning** underflow 1 time(s) in pole/zero analysis
 **warning** underflow 1 time(s) in pole/zero analysis
 **warning** underflow 1 time(s) in pole/zero analysis
 **warning** underflow 1 time(s) in pole/zero analysis
 **warning** underflow 1 time(s) in pole/zero analysis
 **warning** underflow 1 time(s) in pole/zero analysis
 **warning** underflow 1 time(s) in pole/zero analysis
 **warning** underflow 1 time(s) in pole/zero analysis
 **warning** underflow 1 time(s) in pole/zero analysis
 **warning** underflow 1 time(s) in pole/zero analysis
 **warning** underflow 1 time(s) in pole/zero analysis
 **warning** underflow 1 time(s) in pole/zero analysis
 **warning** underflow 1 time(s) in pole/zero analysis
 **warning** underflow 1 time(s) in pole/zero analysis
 **warning** underflow 1 time(s) in pole/zero analysis
 **warning** underflow 1 time(s) in pole/zero analysis
 **warning** underflow 1 time(s) in pole/zero analysis
 **warning** underflow 1 time(s) in pole/zero analysis
 **warning** underflow 1 time(s) in pole/zero analysis
 **warning** underflow 1 time(s) in pole/zero analysis
 **warning** underflow 1 time(s) in pole/zero analysis
 **warning** underflow 1 time(s) in pole/zero analysis
 **warning** underflow 1 time(s) in pole/zero analysis
 **warning** underflow 1 time(s) in pole/zero analysis
 **warning** underflow 1 time(s) in pole/zero analysis
 **warning** underflow 1 time(s) in pole/zero analysis
 **warning** underflow 1 time(s) in pole/zero analysis
 **warning** underflow 1 time(s) in pole/zero analysis
 **warning** underflow 1 time(s) in pole/zero analysis
 **warning** underflow 1 time(s) in pole/zero analysis
 **warning** underflow 1 time(s) in pole/zero analysis
 **warning** underflow 1 time(s) in pole/zero analysis
 **warning** underflow 1 time(s) in pole/zero analysis
 **warning** underflow 1 time(s) in pole/zero analysis
 
 
    input =  0:vinp          output = v(iout)
 
       poles (rad/sec)                 poles ( hertz)
 real            imag            real            imag            
 -3.81791x       0.              -607.640k       0.              
 -12.6693x       1.63628x        -2.01638x       260.422k        
 -12.6693x       -1.63628x       -2.01638x       -260.422k       
 -33.6222x       0.              -5.35114x       0.              
 -92.9457x       0.              -14.7928x       0.              
 -304.668x       0.              -48.4894x       0.              
 
       zeros (rad/sec)                 zeros ( hertz)
 real            imag            real            imag            
 -3.81791x       0.              -607.640k       0.              
 -12.6693x       1.63628x        -2.01638x       260.422k        
 -12.6693x       -1.63628x       -2.01638x       -260.422k       
 -33.6222x       0.              -5.35114x       0.              
 -92.9457x       0.              -14.7928x       0.              
 -304.668x       0.              -48.4894x       0.              
 
  ***** constant factor = 1.00000f

          ***** job concluded
 ****** HSPICE -- B-2008.09 32-BIT (Aug 26 2008) winnt ******                   
 ******  
 *ota

  ******  job statistics summary tnom=  25.000 temp=  25.000 *****

  ******  HSPICE Threads Information  ******
  Command Line Threads Count:                      0
  Available CPU Count:                             4
  Actual Model Evaluation(Load) Threads Count:     1
  Actual Solver Threads Count:                     1


  ******  Circuit Statistics  ******
  # nodes       =      51  # elements   =      30
  # resistors   =       0  # capacitors =       0  # inductors   =       0
  # mutual_inds =       0  # vccs       =       0  # vcvs        =       0
  # cccs        =       0  # ccvs       =       0  # volt_srcs   =      17
  # curr_srcs   =       0  # diodes     =       0  # bjts        =       0
  # jfets       =       0  # mosfets    =      13  # U elements  =       0
  # T elements  =       0  # W elements =       0  # B elements  =       0
  # S elements  =       0  # P elements =       0  # va device   =       0


  ******  Runtime Statistics (seconds)  ******

  analysis           time    # points   tot. iter  conv.iter
  op point           0.10           1          21
  dc sweep           0.21         361         745
  ac analysis        0.05          61          61
  transient          0.13         301         692         252 rev=        42
  readin             0.19
  errchk             0.12
  setup              0.01
  output             0.00


           total memory used          398  kbytes
           total cpu time            0.90 seconds
           total elapsed time           1 seconds
           job started at     23:07:00 12/28/2015
           job ended   at     23:07:01 12/28/2015


 Init: hspice initialization file: C:\synopsys\Hspice_B-2008.09\hspice.ini
