 ****** HSPICE -- B-2008.09 32-BIT (Aug 26 2008) winnt ******                   
  Copyright (C) 2008 Synopsys, Inc. All Rights Reserved.                        
  Unpublished-rights reserved under US copyright laws.
  This program is protected by law and is subject to the 
  terms and conditions of the license agreement from Synopsys.
  Use of this program is your acceptance to be bound by the 
  license agreement. HSPICE is the trademark of Synopsys, Inc.
  Input File: c:\users\timer\documents\github\hspice\pwmadc\ota\ota.sp          
 Init: read install configuration file: C:\synopsys\Hspice_B-2008.09\meta.cfg
 Init: hspice initialization file: C:\synopsys\Hspice_B-2008.09\hspice.ini




 .option brief = 1
 .options abstol=1e-7 reltol=1e-7
 + post=1 captab accurate=1 ingold=1

 * pmos: u0cox /= 8.6e-5
 * nmos: /= 2.0718e-5

 xwlr_outter	vdd	vssno	vsspo	wgn	wgp	iout	wlr_outter	wpo = 1.2u	wno = 400n	mpo = 2	mno = 2
 xwlr_innerp	vdd	vssp	winp	wgp	ib	wlr_inner
 xwlr_innern vdd	vssn	winn	wgn	ib	wlr_inner
 mb	ib vb vdd vdd pch w = 2.6u l = 200n
 xbump	ib	vssb	wgp		wgn	bump	wnb1 = 400n wnb2 = 400n	mnb1 = 4 mnb2 = 4


 .subckt	wlr_outter	vdd	vssno	vsspo	inn	inp	iout	wp = 1.2u wn = 400n	mp = 2 mn = 2
 m1 1d 1d vdd vdd pch w = wp l = 200n m = mp
 m3 iout 1d vdd vdd pch w = wp l = 200n m = mp
 m2 1d inn vssno vssno nch w = wn l = 200n m = mn
 m4 iout inp vsspo vsspo nch w = wn l = 200n m = mn
 .ends

 .subckt wlr_inner vdd vss win wg ib
 ms sd sd ib ib pch w = 1.2u l = 200n
 mw wg wg sd win pch w = 1.2u l = 200n
 mgm wg wg vss vss nch w = 400n l = 200n
 .ends

 .subckt bump ib vss wgp wgn wn1 = 400n wn2 = 400n	m1 = 4 m2 = 4
 mb1 ib wgn 1 vss nch w = wn1 l = 200n m = m1
 mb2 1 wgp vss vss nch w = wn2 l = 200n m = m2
 .ends




 .param vd = 1.8v
 vd vdd gnd dc = vd
 *vs vss gnd dc = 0v
 vsp vssp gnd dc = 0v
 vsn vssn gnd dc = 0v
 vsb vssb gnd dc = 0v
 vsno	vssno	gnd	dc = 0v
 vspo	vsspo	gnd	dc = 0v
 vbias vb gnd dc = 'vd - 0.3v' pulse('vd - 0.3v' 0v 1ns 1ns 1ns 40ns 100ns)

 .param 
 +vdc = 'vd/2'	
 +diff = 0.5	
 +vdiff = 1.4v	
 +diff_a = 1

 vinp winp gnd dc = 'vdc + vdiff/2' ac = diff_a
 vinn winn gnd dc = 'vdc - vdiff/2 '*ac = '-diff_a'
 *vinn winn iout dc = 0
 *cl iout gnd 1p

 ***iout measure***
 .param ro = 1x
 vout	iout	gnd	dc = 0.9
 *e1	gnd	vout	opamp	vr	iout
 *ro1	iout	gnd	ro
 *ro2	vout	gnd ro
 *e2	vr	gnd		vcvs	iout	gnd	1
 *hx 20 gnd vcvs max=+10 min=-10 100000
 *vcur iout gnd  dc = 0v
 *r1 20 gnd 10k
 ******************
 .op
 .dc vdiff '-vd' 'vd' 0.01 *sweep ro 1x 3x 1x
 .ac dec 10 1 1meg 
 .tran 1ns 300ns 
 .probe dc i(mb) i(vout)
 +i(xwlr_outter.m4) i(xwlr_innerp.mgm) ienlarge_p = par('i(xwlr_outter.m4)/i(xwlr_innerp.mgm)')
 +i(xwlr_outter.m2) i(xwlr_innern.mgm) ienlarge_n = par('i(xwlr_outter.m2)/i(xwlr_innern.mgm)')
 +idiff_inner = par('i(vsn)-i(vsp)')	
 +idiff_outter = par('i(vsno)-i(vspo)')
 +ioutib = par('idiff_outter/i(mb)')
 .probe ac i(mb) i(xwlr_innerp.mgm) vdb(iout)
 .pz v(iout)	vinp

 *.probe  isub(xbump.ib)
 *+ v(20)    *use the current controlled voltage source(h element) ouput to sense current(x e5)
 .end

 ***********************************************************************
 ** runlvl is invoked, you can disable it by:
      a) Add option runlvl=0 to your current simulation job.
      b) Copy $installdir/hspice.ini to your HOME directory and
         customize it by adding option runlvl=0, which disables
         it for all of your simulation jobs.
      c) Re-invoke $installdir/bin/config program and unselect the
         option runlvl setting in box 'hspice.ini' which disables
         it for whole group simulation jobs.

 ** runlvl is invoked, some options are ignored or automatically set:
      Options below are automatically set(user setting will overwrite them):
      if runlvl=[1|2|3|4|5|6],  .option bypass=2

      Options below are ignored, they are replaced by automated algorithms:
        lvltim    dvdt      ft    fast   trtol  absvar  relvar
          relq  chgtol    dvtr    imin    itl3    rmax

 ** runlvl is invoked, actual option value used by HSPICE are:
       runlvl= 5       bypass= 2      mbypass=   2.00   bytol= 100.00n
 ***********************************************************************

 ****** HSPICE -- B-2008.09 32-BIT (Aug 26 2008) winnt ******                   
 ******  
 *ota

  ******  circuit name directory
 circuit number to circuit name directory
   number circuitname                     definition         multiplier
        0 main circuit
        1 xwlr_outter.                    wlr_outter         1.00 
        2 xwlr_innerp.                    wlr_inner          1.00 
        3 xwlr_innern.                    wlr_inner          1.00 
        4 xbump.                          bump               1.00 
 

 
      
  Opening plot unit= 79
 file=c:\users\timer\documents\github\hspice\pwmadc\ota\ota.pa0                

 ****** HSPICE -- B-2008.09 32-BIT (Aug 26 2008) winnt ******                   
 ******  
 *ota

  ******  operating point information tnom=  25.000 temp=  25.000 *****
 ***** operating point status is all       simulation time is     0.     
    node    =voltage      node    =voltage      node    =voltage

 +0:ib      =   0.8791  0:iout    =   0.9000  0:vb      =   1.5000 
 +0:vdd     =   1.8000  0:vssb    =   0.      0:vssn    =   0.     
 +0:vssno   =   0.      0:vssp    =   0.      0:vsspo   =   0.     
 +0:wgn     =   0.3039  0:wgp     =   0.1820  0:winn    =   0.2000 
 +0:winp    =   1.6000  1:1d      =   1.4411  2:sd      =   0.6645 
 +3:sd      =   0.5423  4:1       =   0.1082 


 maximum nodal capacitance=   3.125E-14         on node     0:vdd             

    nodal  capacitance table 

    node    =    cap      node    =    cap      node    =    cap

 +0:ib      = 1.612e-14 0:iout    = 4.243e-15 0:vb      = 2.710e-15
 +0:vdd     = 3.125e-14 0:vssb    = 1.206e-14 0:vssn    = 1.872e-15
 +0:vssno   = 3.548e-15 0:vssp    = 1.898e-15 0:vsspo   = 3.631e-15
 +0:wgn     = 7.164e-15 0:wgp     = 6.492e-15 0:winn    = 3.669e-15
 +0:winp    = 2.569e-15 1:1d      = 9.547e-15 2:sd      = 4.622e-15
 +3:sd      = 5.171e-15 4:1       = 5.270e-15

 

 ****  voltage sources

 subckt                                                                    
 element  0:vd       0:vsp      0:vsn      0:vsb      0:vsno     0:vspo    
  volts      1.8000     0.         0.         0.         0.         0.     
  current -1.955e-07  6.755e-10  2.133e-08  2.459e-09  7.536e-08  2.128e-09
  power    3.520e-07    0.         0.         0.         0.         0.     

 subckt                                              
 element  0:vbias    0:vinp     0:vinn     0:vout    
  volts      1.5000     1.6000     0.2000     0.9000 
  current    0.      -2.353e-12  2.869e-12  9.359e-08
  power      0.       3.766e-12 -5.737e-13 -8.423e-08

     total voltage source power dissipation=  2.677e-07       watts




 **** mosfets


 subckt              xwlr_outte xwlr_outte xwlr_outte xwlr_outte xwlr_inner
 element  0:mb       1:m1       1:m3       1:m2       1:m4       2:ms      
 model    0:pch.8    0:pch.8    0:pch.8    0:nch.16   0:nch.16   0:pch.8   
 region       Cutoff     Cutoff     Cutoff     Cutoff     Cutoff     Cutoff
  id      -2.446e-08 -7.536e-08 -9.571e-08  7.534e-08  2.124e-09 -6.727e-10
  ibs      3.934e-24  1.394e-23  1.770e-23 -2.369e-23 -6.684e-25  1.245e-25
  ibd      8.396e-18  7.920e-18  9.756e-18 -1.169e-11 -1.075e-15  3.959e-18
  vgs       -0.3000    -0.3589    -0.3589     0.3039     0.1820    -0.2145 
  vds       -0.9209    -0.3589    -0.9000     1.4411     0.9000    -0.2145 
  vbs        0.         0.         0.         0.         0.         0.     
  vth       -0.4993    -0.5007    -0.4987     0.5191     0.5203    -0.5012 
  vdsat   -4.193e-02 -4.296e-02 -4.313e-02  4.503e-02  4.451e-02 -4.078e-02
  vod        0.1993     0.1417     0.1397    -0.2152    -0.3384     0.2867 
  beta     1.196e-03  1.017e-03  1.018e-03  2.277e-03  2.277e-03  5.088e-04
  gam eff    0.6457     0.6427     0.6427     0.9023     0.9023     0.6427 
  gm       6.417e-07  1.856e-06  2.315e-06  1.936e-06  6.046e-08  1.959e-08
  gds      1.109e-08  3.942e-08  3.763e-08  2.906e-08  1.014e-09  5.368e-10
  gmb      2.209e-07  6.474e-07  8.010e-07  5.422e-07  1.780e-08  7.054e-09
  cdtot    3.193e-15  3.474e-15  3.118e-15  1.055e-15  1.124e-15  1.804e-15
  cgtot    2.710e-15  2.507e-15  2.511e-15  9.193e-16  9.333e-16  1.268e-15
  cstot    3.964e-15  3.896e-15  3.902e-15  1.366e-15  1.364e-15  1.930e-15
  cbtot    6.455e-15  6.697e-15  6.341e-15  2.183e-15  2.267e-15  3.440e-15
  cgs      8.569e-16  8.115e-16  8.161e-16  2.900e-16  2.889e-16  3.905e-16
  cgd      8.494e-16  7.804e-16  7.804e-16  2.888e-16  2.888e-16  3.903e-16



 subckt   xwlr_inner xwlr_inner xwlr_inner xwlr_inner xwlr_inner xbump     
 element  2:mw       2:mgm      3:ms       3:mw       3:mgm      4:mb1     
 model    0:pch.8    0:nch.16   0:pch.8    0:pch.8    0:nch.16   0:nch.16  
 region       Cutoff     Cutoff     Cutoff     Cutoff     Cutoff     Cutoff
  id      -6.736e-10  6.751e-10 -2.133e-08 -2.133e-08  2.133e-08  2.452e-09
  ibs      3.960e-18 -2.123e-25  3.945e-24 -2.422e-12 -6.706e-24 -9.363e-18
  ibd      3.960e-18 -2.374e-18  3.960e-18 -2.220e-16 -2.376e-18 -1.039e-16
  vgs       -0.4826     0.1820    -0.3367    -0.2384     0.3039     0.1957 
  vds       -0.4826     0.1820    -0.3367    -0.2384     0.3039     0.7709 
  vbs        0.9355     0.         0.        -0.3423     0.        -0.1082 
  vth       -0.7646     0.5220    -0.5008    -0.4021     0.5217     0.5495 
  vdsat   -4.372e-02  4.451e-02 -4.204e-02 -4.025e-02  4.500e-02  4.474e-02
  vod        0.2820    -0.3400     0.1640     0.1636    -0.2178    -0.3538 
  beta     4.600e-04  1.139e-03  5.088e-04  5.236e-04  1.139e-03  4.545e-03
  gam eff    0.6407     0.9023     0.6427     0.6435     0.9023     0.9131 
  gm       2.042e-08  1.923e-08  5.452e-07  5.341e-07  5.515e-07  7.084e-08
  gds      5.168e-10  7.124e-10  1.182e-08  1.265e-08  1.622e-08  1.311e-09
  gmb      5.063e-09  5.779e-09  1.909e-07  1.316e-07  1.598e-07  1.933e-08
  cdtot    1.448e-15  6.450e-16  1.747e-15  2.000e-15  6.255e-16  2.255e-15
  cgtot    1.132e-15  4.667e-16  1.252e-15  1.323e-15  4.596e-16  1.837e-15
  cstot    1.550e-15  6.822e-16  1.939e-15  2.173e-15  6.829e-16  2.635e-15
  cbtot    2.569e-15  1.216e-15  3.361e-15  3.669e-15  1.189e-15  4.417e-15
  cgs      3.905e-16  1.444e-16  3.982e-16  6.474e-16  1.450e-16  5.777e-16
  cgd      3.903e-16  1.444e-16  3.903e-16  3.903e-16  1.444e-16  5.776e-16



 subckt   xbump     
 element  4:mb2     
 model    0:nch.16  
 region       Cutoff
  id       2.454e-09
  ibs     -7.718e-25
  ibd     -9.363e-18
  vgs        0.1820 
  vds        0.1082 
  vbs        0.     
  vth        0.5222 
  vdsat    4.451e-02
  vod       -0.3402 
  beta     4.554e-03
  gam eff    0.9023 
  gm       6.991e-08
  gds      4.142e-09
  gmb      2.106e-08
  cdtot    2.635e-15
  cgtot    1.867e-15
  cstot    2.729e-15
  cbtot    4.920e-15
  cgs      5.777e-16
  cgd      5.776e-16



 ***************************************************
   ******   pole/zero analysis  
 **warning** underflow 1 time(s) in pole/zero analysis
 **warning** underflow 1 time(s) in pole/zero analysis
 **warning** underflow 1 time(s) in pole/zero analysis
 **warning** underflow 1 time(s) in pole/zero analysis
 **warning** underflow 1 time(s) in pole/zero analysis
 **warning** underflow 1 time(s) in pole/zero analysis
 **warning** underflow 1 time(s) in pole/zero analysis
 **warning** underflow 1 time(s) in pole/zero analysis
 **warning** underflow 1 time(s) in pole/zero analysis
 **warning** underflow 1 time(s) in pole/zero analysis
 **warning** underflow 1 time(s) in pole/zero analysis
 **warning** underflow 1 time(s) in pole/zero analysis
 **warning** underflow 1 time(s) in pole/zero analysis
 **warning** underflow 1 time(s) in pole/zero analysis
 **warning** underflow 1 time(s) in pole/zero analysis
 **warning** underflow 1 time(s) in pole/zero analysis
 **warning** underflow 1 time(s) in pole/zero analysis
 **warning** underflow 1 time(s) in pole/zero analysis
 **warning** underflow 1 time(s) in pole/zero analysis
 **warning** underflow 1 time(s) in pole/zero analysis
 **warning** underflow 1 time(s) in pole/zero analysis
 **warning** underflow 1 time(s) in pole/zero analysis
 **warning** underflow 1 time(s) in pole/zero analysis
 **warning** underflow 1 time(s) in pole/zero analysis
 **warning** underflow 1 time(s) in pole/zero analysis
 **warning** underflow 1 time(s) in pole/zero analysis
 **warning** underflow 1 time(s) in pole/zero analysis
 **warning** underflow 1 time(s) in pole/zero analysis
 **warning** underflow 1 time(s) in pole/zero analysis
 **warning** underflow 1 time(s) in pole/zero analysis
 **warning** underflow 1 time(s) in pole/zero analysis
 **warning** underflow 1 time(s) in pole/zero analysis
 **warning** underflow 1 time(s) in pole/zero analysis
 **warning** underflow 1 time(s) in pole/zero analysis
 **warning** underflow 1 time(s) in pole/zero analysis
 **warning** underflow 1 time(s) in pole/zero analysis
 **warning** underflow 1 time(s) in pole/zero analysis
 **warning** underflow 1 time(s) in pole/zero analysis
 
 
    input =  0:vinp          output = v(iout)
 
       poles (rad/sec)                 poles ( hertz)
 real            imag            real            imag            
 -4.61574x       0.              -734.618k       0.              
 -15.1106x       1.87343x        -2.40493x       298.165k        
 -15.1106x       -1.87343x       -2.40493x       -298.165k       
 -38.5466x       0.              -6.13488x       0.              
 -110.583x       0.              -17.5998x       0.              
 -249.808x       0.              -39.7581x       0.              
 -342.083x       0.              -54.4442x       0.              
 
       zeros (rad/sec)                 zeros ( hertz)
 real            imag            real            imag            
 -4.61574x       0.              -734.618k       0.              
 -15.1106x       1.87343x        -2.40493x       298.165k        
 -15.1106x       -1.87343x       -2.40493x       -298.165k       
 -38.5466x       0.              -6.13488x       0.              
 -110.583x       0.              -17.5998x       0.              
 -249.808x       0.              -39.7581x       0.              
 -342.083x       0.              -54.4442x       0.              
 
  ***** constant factor = 1.00000f

          ***** job concluded
 ****** HSPICE -- B-2008.09 32-BIT (Aug 26 2008) winnt ******                   
 ******  
 *ota

  ******  job statistics summary tnom=  25.000 temp=  25.000 *****

  ******  HSPICE Threads Information  ******
  Command Line Threads Count:                      0
  Available CPU Count:                             4
  Actual Model Evaluation(Load) Threads Count:     1
  Actual Solver Threads Count:                     1


  ******  Circuit Statistics  ******
  # nodes       =      49  # elements   =      28
  # resistors   =       0  # capacitors =       0  # inductors   =       0
  # mutual_inds =       0  # vccs       =       0  # vcvs        =       0
  # cccs        =       0  # ccvs       =       0  # volt_srcs   =      15
  # curr_srcs   =       0  # diodes     =       0  # bjts        =       0
  # jfets       =       0  # mosfets    =      13  # U elements  =       0
  # T elements  =       0  # W elements =       0  # B elements  =       0
  # S elements  =       0  # P elements =       0  # va device   =       0


  ******  Runtime Statistics (seconds)  ******

  analysis           time    # points   tot. iter  conv.iter
  op point           0.01           1          21
  dc sweep           0.15         361         743
  ac analysis        0.05          61          61
  transient          0.10         301         756         275 rev=        49
  readin             0.18
  errchk             0.05
  setup              0.02
  output             0.00


           total memory used          397  kbytes
           total cpu time            0.60 seconds
           total elapsed time           1 seconds
           job started at     23:12:06 11/21/2015
           job ended   at     23:12:06 11/21/2015


 Init: hspice initialization file: C:\synopsys\Hspice_B-2008.09\hspice.ini
