 ****** HSPICE -- B-2008.09 32-BIT (Aug 26 2008) winnt ******                   
  Copyright (C) 2008 Synopsys, Inc. All Rights Reserved.                        
  Unpublished-rights reserved under US copyright laws.
  This program is protected by law and is subject to the 
  terms and conditions of the license agreement from Synopsys.
  Use of this program is your acceptance to be bound by the 
  license agreement. HSPICE is the trademark of Synopsys, Inc.
  Input File: c:\users\timer\documents\github\hspice\pwmadc\ota\ota.sp          
 Init: read install configuration file: C:\synopsys\Hspice_B-2008.09\meta.cfg
 Init: hspice initialization file: C:\synopsys\Hspice_B-2008.09\hspice.ini




 .options abstol=1e-7 reltol=1e-7
 + post=1 captab accurate=1 ingold=1

 * pmos: u0cox /= 8.6e-5
 * nmos: /= 2.0718e-5

 xwlr_outter vdd vss wgn wgp iout wlr_outter 
 xwlr_innerp vdd vssp winp wgp ib wlr_inner
 xwlr_innern vdd vssn winn wgn ib wlr_inner
 mb ib vb vdd vdd pch w = 2.6u l = 200n
 xbump ib vssb wgp wgn bump


 .subckt wlr_outter vdd vss inn inp iout
 m1 1d 1d vdd vdd pch w = 1.2u l = 200n m = 2
 m3 iout 1d vdd vdd pch w = 1.2u l = 200n m = 2
 m2 1d inn vss vss nch w = 400n l = 200n m = 2
 m4 iout inp vss vss nch w = 400n l = 200n m = 2
 .ends

 .subckt wlr_inner vdd vss win wg ib
 ms sd sd ib ib pch w = 1.2u l = 200n
 mw wg wg sd win pch w = 1.2u l = 200n
 mgm wg wg vss vss nch w = 400n l = 200n
 .ends

 .subckt bump ib vss wgp wgn 
 mb1 ib wgn 1 vss nch w = 400n l = 200n m = 4
 mb2 1 wgp vss vss nch w = 400n l = 200n m = 4
 .ends

 .param vd = 1.8v
 vd vdd gnd dc = vd
 vs vss gnd dc = 0v
 vsp vssp gnd dc = 0v
 vsn vssn gnd dc = 0v
 vsb vssb gnd dc = 0v
 vbias vb gnd dc = 'vd - 0.3v'

 .param vdc = 'vd/2' diff = 0.5 vdiff = 1.4v
 vinp winp gnd dc = 'vdc + vdiff/2' ac = diff
 *vinn winn gnd dc = 'vdc - vdiff/2 ' ac = -diff
 vinn winn gnd dc = 0.9

 ***iout measure***
 hx 20 gnd vcur max=+10 min=-10 100000
 vcur iout gnd  dc = 0v
 r1 20 gnd 10k
 ******************
 .op
 .dc sweep vdiff '0' vd 0.01
 .ac dec 500 1k 1meg *sweep vbias 0.8 1.2 0.05
 .probe  idiff = par('i(vsn)-i(vsp)')  
 .probe dc i(mb)  i(xwlr_innerp.mgm) 
 *.probe  isub(xbump.ib)
 .print dc 
 + idiff = par('i(vsn)-i(vsp)') 
 + v(20)    *use the current controlled voltage source(h element) ouput to sense current(x e5)
 .end


 **warning**  the accurate option increases  the cpu time but the results
                are more accurate.
 ***accurate option sets default value of the options: 
 lvltim= 4         dvdt= 3       relvar= 200.00m absvar= 200.00m
     ft= 200.00m relmos=  10.00m
 (used for FFT control ) fft_accurate= 1
1****** HSPICE -- B-2008.09 32-BIT (Aug 26 2008) winnt ******                   
 ******  
 *ota

  ******  circuit name directory
 circuit number to circuit name directory
   number circuitname                     definition         multiplier
        0 main circuit
        1 xwlr_outter.                    wlr_outter         1.00 
        2 xwlr_innerp.                    wlr_inner          1.00 
        3 xwlr_innern.                    wlr_inner          1.00 
        4 xbump.                          bump               1.00 
 

 
      
  Opening plot unit= 79
 file=c:\users\timer\documents\github\hspice\pwmadc\ota\ota.pa0                

 ******  
 *ota

  ******  dc transfer curves tnom=  25.000 temp=  25.000 *****
x

      vdiff        idiff     voltage    
                                 20     
    0.         -5.773e-19    4.141e-03  
  1.0000e-02    7.452e-11    4.167e-03  
  2.0000e-02    1.490e-10    4.192e-03  
  3.0000e-02    2.234e-10    4.218e-03  
  4.0000e-02    2.979e-10    4.244e-03  
  5.0000e-02    3.722e-10    4.270e-03  
  6.0000e-02    4.466e-10    4.296e-03  
  7.0000e-02    5.209e-10    4.322e-03  
  8.0000e-02    5.953e-10    4.348e-03  
  9.0000e-02    6.696e-10    4.374e-03  
    0.10000     7.439e-10    4.401e-03  
    0.11000     8.181e-10    4.427e-03  
    0.12000     8.924e-10    4.454e-03  
    0.13000     9.667e-10    4.481e-03  
    0.14000     1.041e-09    4.508e-03  
    0.15000     1.115e-09    4.535e-03  
    0.16000     1.189e-09    4.562e-03  
    0.17000     1.264e-09    4.589e-03  
    0.18000     1.338e-09    4.617e-03  
    0.19000     1.412e-09    4.644e-03  
    0.20000     1.487e-09    4.672e-03  
    0.21000     1.561e-09    4.699e-03  
    0.22000     1.635e-09    4.727e-03  
    0.23000     1.710e-09    4.755e-03  
    0.24000     1.784e-09    4.783e-03  
    0.25000     1.858e-09    4.811e-03  
    0.26000     1.933e-09    4.840e-03  
    0.27000     2.007e-09    4.868e-03  
    0.28000     2.082e-09    4.897e-03  
    0.29000     2.156e-09    4.925e-03  
    0.30000     2.231e-09    4.954e-03  
    0.31000     2.305e-09    4.983e-03  
    0.32000     2.380e-09    5.012e-03  
    0.33000     2.454e-09    5.041e-03  
    0.34000     2.529e-09    5.070e-03  
    0.35000     2.604e-09    5.099e-03  
    0.36000     2.678e-09    5.128e-03  
    0.37000     2.753e-09    5.158e-03  
    0.38000     2.828e-09    5.187e-03  
    0.39000     2.902e-09    5.217e-03  
    0.40000     2.977e-09    5.247e-03  
    0.41000     3.052e-09    5.277e-03  
    0.42000     3.127e-09    5.307e-03  
    0.43000     3.202e-09    5.337e-03  
    0.44000     3.277e-09    5.367e-03  
    0.45000     3.352e-09    5.397e-03  
    0.46000     3.427e-09    5.427e-03  
    0.47000     3.502e-09    5.458e-03  
    0.48000     3.577e-09    5.488e-03  
    0.49000     3.652e-09    5.519e-03  
    0.50000     3.727e-09    5.549e-03  
    0.51000     3.803e-09    5.580e-03  
    0.52000     3.878e-09    5.611e-03  
    0.53000     3.953e-09    5.642e-03  
    0.54000     4.029e-09    5.673e-03  
    0.55000     4.104e-09    5.704e-03  
    0.56000     4.179e-09    5.735e-03  
    0.57000     4.255e-09    5.766e-03  
    0.58000     4.330e-09    5.797e-03  
    0.59000     4.406e-09    5.829e-03  
    0.60000     4.481e-09    5.860e-03  
    0.61000     4.557e-09    5.892e-03  
    0.62000     4.632e-09    5.923e-03  
    0.63000     4.708e-09    5.955e-03  
    0.64000     4.784e-09    5.986e-03  
    0.65000     4.859e-09    6.018e-03  
    0.66000     4.935e-09    6.050e-03  
    0.67000     5.011e-09    6.082e-03  
    0.68000     5.086e-09    6.114e-03  
    0.69000     5.162e-09    6.146e-03  
    0.70000     5.238e-09    6.178e-03  
    0.71000     5.314e-09    6.210e-03  
    0.72000     5.389e-09    6.242e-03  
    0.73000     5.465e-09    6.274e-03  
    0.74000     5.541e-09    6.307e-03  
    0.75000     5.617e-09    6.339e-03  
    0.76000     5.693e-09    6.371e-03  
    0.77000     5.769e-09    6.404e-03  
    0.78000     5.844e-09    6.436e-03  
    0.79000     5.920e-09    6.468e-03  
    0.80000     5.996e-09    6.501e-03  
    0.81000     6.072e-09    6.534e-03  
    0.82000     6.148e-09    6.566e-03  
    0.83000     6.224e-09    6.599e-03  
    0.84000     6.299e-09    6.631e-03  
    0.85000     6.375e-09    6.664e-03  
    0.86000     6.451e-09    6.697e-03  
    0.87000     6.527e-09    6.729e-03  
    0.88000     6.602e-09    6.762e-03  
    0.89000     6.678e-09    6.795e-03  
    0.90000     6.754e-09    6.828e-03  
    0.91000     6.829e-09    6.860e-03  
    0.92000     6.905e-09    6.893e-03  
    0.93000     6.981e-09    6.926e-03  
    0.94000     7.056e-09    6.959e-03  
    0.95000     7.132e-09    6.992e-03  
    0.96000     7.207e-09    7.025e-03  
    0.97000     7.283e-09    7.057e-03  
    0.98000     7.358e-09    7.090e-03  
    0.99000     7.433e-09    7.123e-03  
    1.00000     7.509e-09    7.156e-03  
    1.01000     7.584e-09    7.189e-03  
    1.02000     7.659e-09    7.222e-03  
    1.03000     7.734e-09    7.255e-03  
    1.04000     7.809e-09    7.287e-03  
    1.05000     7.884e-09    7.320e-03  
    1.06000     7.959e-09    7.353e-03  
    1.07000     8.034e-09    7.386e-03  
    1.08000     8.109e-09    7.419e-03  
    1.09000     8.183e-09    7.451e-03  
    1.10000     8.258e-09    7.484e-03  
    1.11000     8.333e-09    7.517e-03  
    1.12000     8.407e-09    7.550e-03  
    1.13000     8.481e-09    7.582e-03  
    1.14000     8.556e-09    7.615e-03  
    1.15000     8.630e-09    7.648e-03  
    1.16000     8.704e-09    7.680e-03  
    1.17000     8.778e-09    7.713e-03  
    1.18000     8.852e-09    7.745e-03  
    1.19000     8.925e-09    7.778e-03  
    1.20000     8.999e-09    7.810e-03  
    1.21000     9.073e-09    7.843e-03  
    1.22000     9.146e-09    7.875e-03  
    1.23000     9.219e-09    7.908e-03  
    1.24000     9.292e-09    7.940e-03  
    1.25000     9.366e-09    7.972e-03  
    1.26000     9.438e-09    8.004e-03  
    1.27000     9.511e-09    8.037e-03  
    1.28000     9.584e-09    8.069e-03  
    1.29000     9.656e-09    8.101e-03  
    1.30000     9.729e-09    8.133e-03  
    1.31000     9.801e-09    8.165e-03  
    1.32000     9.873e-09    8.197e-03  
    1.33000     9.945e-09    8.229e-03  
    1.34000     1.002e-08    8.260e-03  
    1.35000     1.009e-08    8.292e-03  
    1.36000     1.016e-08    8.324e-03  
    1.37000     1.023e-08    8.355e-03  
    1.38000     1.030e-08    8.387e-03  
    1.39000     1.037e-08    8.418e-03  
    1.40000     1.044e-08    8.450e-03  
    1.41000     1.052e-08    8.481e-03  
    1.42000     1.059e-08    8.512e-03  
    1.43000     1.066e-08    8.544e-03  
    1.44000     1.073e-08    8.575e-03  
    1.45000     1.080e-08    8.606e-03  
    1.46000     1.087e-08    8.637e-03  
    1.47000     1.094e-08    8.668e-03  
    1.48000     1.100e-08    8.699e-03  
    1.49000     1.107e-08    8.729e-03  
    1.50000     1.114e-08    8.760e-03  
    1.51000     1.121e-08    8.791e-03  
    1.52000     1.128e-08    8.821e-03  
    1.53000     1.135e-08    8.852e-03  
    1.54000     1.142e-08    8.882e-03  
    1.55000     1.149e-08    8.912e-03  
    1.56000     1.155e-08    8.942e-03  
    1.57000     1.162e-08    8.972e-03  
    1.58000     1.169e-08    9.002e-03  
    1.59000     1.176e-08    9.032e-03  
    1.60000     1.182e-08    9.062e-03  
    1.61000     1.189e-08    9.092e-03  
    1.62000     1.196e-08    9.121e-03  
    1.63000     1.202e-08    9.151e-03  
    1.64000     1.209e-08    9.180e-03  
    1.65000     1.215e-08    9.210e-03  
    1.66000     1.222e-08    9.239e-03  
    1.67000     1.229e-08    9.268e-03  
    1.68000     1.235e-08    9.297e-03  
    1.69000     1.242e-08    9.326e-03  
    1.70000     1.248e-08    9.355e-03  
    1.71000     1.255e-08    9.384e-03  
    1.72000     1.261e-08    9.412e-03  
    1.73000     1.267e-08    9.441e-03  
    1.74000     1.274e-08    9.469e-03  
    1.75000     1.280e-08    9.497e-03  
    1.76000     1.286e-08    9.526e-03  
    1.77000     1.293e-08    9.554e-03  
    1.78000     1.299e-08    9.582e-03  
    1.79000     1.305e-08    9.610e-03  
    1.80000     1.312e-08    9.637e-03  
y
1****** HSPICE -- B-2008.09 32-BIT (Aug 26 2008) winnt ******                   
 ******  
 *ota

  ******  operating point information tnom=  25.000 temp=  25.000 *****
 ***** operating point status is all       simulation time is     0.     
    node    =voltage      node    =voltage      node    =voltage

 +0:20      = 8.450e-03 0:ib      =   0.9938  0:iout    =   0.     
 +0:vb      =   1.5000  0:vdd     =   1.8000  0:vss     =   0.     
 +0:vssb    =   0.      0:vssn    =   0.      0:vssp    =   0.     
 +0:wgn     =   0.2853  0:wgp     =   0.2267  0:winn    =   0.9000 
 +0:winp    =   1.6000  1:1d      =   1.4597  2:sd      =   0.7349 
 +3:sd      =   0.6759  4:1       = 6.423e-02


 maximum nodal capacitance=   3.097E-14         on node     0:vdd             

    nodal  capacitance table 

    node    =    cap      node    =    cap      node    =    cap

 +0:20      =   0.      0:ib      = 1.612e-14 0:iout    = 4.136e-15
 +0:vb      = 2.710e-15 0:vdd     = 3.097e-14 0:vss     = 7.413e-15
 +0:vssb    = 1.209e-14 0:vssn    = 1.876e-15 0:vssp    = 1.888e-15
 +0:wgn     = 6.702e-15 0:wgp     = 6.476e-15 0:winn    = 3.086e-15
 +0:winp    = 2.598e-15 1:1d      = 9.556e-15 2:sd      = 4.611e-15
 +3:sd      = 4.811e-15 4:1       = 5.342e-15

 

 ****  voltage sources

 subckt                                                                    
 element  0:vd       0:vs       0:vsp      0:vsn      0:vsb      0:vbias   
  volts      1.8000     0.         0.         0.         0.         1.5000 
  current -1.545e-07  4.683e-08  2.490e-09  1.293e-08  7.783e-09    0.     
  power    2.782e-07    0.         0.         0.         0.         0.     

 subckt                                   
 element  0:vinp     0:vinn     0:vcur    
  volts      1.6000     0.9000     0.     
  current -2.238e-12 -8.387e-13  8.450e-08
  power    3.582e-12  7.549e-13    0.     

     total voltage source power dissipation=  2.782e-07       watts



 **** resistors

 subckt             
 element  0:r1      
  r value  1.000e+04
  v drop   8.450e-03
  current  8.450e-07
  power    7.140e-09


 **** current-controlled voltage sources


 subckt             
 element  0:hx      
  volts    8.450e-03
  current -8.450e-07





 **** mosfets


 subckt              xwlr_outte xwlr_outte xwlr_outte xwlr_outte xwlr_inner
 element  0:mb       1:m1       1:m3       1:m2       1:m4       2:ms      
 model    0:pch.8    0:pch.8    0:pch.8    0:nch.16   0:nch.16   0:pch.8   
 region       Cutoff     Cutoff     Cutoff     Cutoff     Cutoff     Cutoff
  id      -2.320e-08 -4.682e-08 -8.449e-08  4.681e-08    0.      -2.487e-09
  ibs      3.731e-24  8.661e-24  1.563e-23 -1.472e-23    0.       4.601e-25
  ibd      7.476e-18  7.920e-18  2.544e-12 -8.222e-12    0.       3.960e-18
  vgs       -0.3000    -0.3403    -0.3403     0.2853     0.2267    -0.2589 
  vds       -0.8062    -0.3403    -1.8000     1.4597     0.        -0.2589 
  vbs        0.         0.         0.         0.         0.         0.     
  vth       -0.4998    -0.5008    -0.4953     0.5190     0.5224    -0.5011 
  vdsat   -4.192e-02 -4.216e-02 -4.248e-02  4.483e-02  4.456e-02 -4.090e-02
  vod        0.1998     0.1604     0.1550    -0.2337    -0.2958     0.2421 
  beta     1.196e-03  1.018e-03  1.019e-03  2.277e-03  2.277e-03  5.088e-04
  gam eff    0.6457     0.6427     0.6427     0.9023     0.9023     0.6427 
  gm       6.114e-07  1.190e-06  2.043e-06  1.233e-06    0.       7.019e-08
  gds      1.087e-08  2.570e-08  2.886e-08  1.806e-08  1.447e-07  1.722e-09
  gmb      2.110e-07  4.164e-07  6.988e-07  3.468e-07    0.       2.499e-08
  cdtot    3.255e-15  3.490e-15  2.772e-15  1.053e-15  1.365e-15  1.782e-15
  cgtot    2.710e-15  2.503e-15  2.510e-15  9.211e-16  9.277e-16  1.260e-15
  cstot    3.963e-15  3.880e-15  3.891e-15  1.365e-15  1.364e-15  1.930e-15
  cbtot    6.516e-15  6.718e-15  6.000e-15  2.183e-15  2.501e-15  3.410e-15
  cgs      8.566e-16  7.983e-16  8.068e-16  2.895e-16  2.889e-16  3.911e-16
  cgd      8.495e-16  7.805e-16  7.804e-16  2.888e-16  2.889e-16  3.903e-16



 subckt   xwlr_inner xwlr_inner xwlr_inner xwlr_inner xwlr_inner xbump     
 element  2:mw       2:mgm      3:ms       3:mw       3:mgm      4:mb1     
 model    0:pch.8    0:nch.16   0:pch.8    0:pch.8    0:nch.16   0:nch.16  
 region       Cutoff     Cutoff     Cutoff     Cutoff     Cutoff     Cutoff
  id      -2.488e-09  2.490e-09 -1.293e-08 -1.293e-08  1.293e-08  7.775e-09
  ibs      3.960e-18 -7.829e-25  2.392e-24  3.959e-18 -4.067e-24 -8.724e-18
  ibd      3.960e-18 -2.376e-18  3.960e-18  3.960e-18 -2.376e-18 -6.363e-15
  vgs       -0.5082     0.2267    -0.3179    -0.3906     0.2853     0.2211 
  vds       -0.5082     0.2267    -0.3179    -0.3906     0.2853     0.9296 
  vbs        0.8651     0.         0.         0.2241     0.      -6.423e-02
  vth       -0.7473     0.5219    -0.5008    -0.5734     0.5218     0.5376 
  vdsat   -4.371e-02  4.456e-02 -4.154e-02 -4.257e-02  4.480e-02  4.467e-02
  vod        0.2391    -0.2952     0.1830     0.1828    -0.2364    -0.3165 
  beta     4.636e-04  1.139e-03  5.088e-04  4.968e-04  1.139e-03  4.549e-03
  gam eff    0.6408     0.9023     0.6427     0.6422     0.9023     0.9088 
  gm       7.277e-08  6.942e-08  3.403e-07  3.443e-07  3.425e-07  2.206e-07
  gds      1.723e-09  2.264e-09  7.541e-09  7.426e-09  1.021e-08  3.780e-09
  gmb      1.830e-08  2.057e-08  1.196e-07  1.081e-07  9.973e-08  6.127e-08
  cdtot    1.456e-15  6.375e-16  1.755e-15  1.642e-15  6.283e-16  2.221e-15
  cgtot    1.136e-15  4.638e-16  1.252e-15  1.209e-15  4.605e-16  1.841e-15
  cstot    1.569e-15  6.822e-16  1.935e-15  1.804e-15  6.826e-16  2.671e-15
  cbtot    2.598e-15  1.206e-15  3.372e-15  3.086e-15  1.193e-15  4.422e-15
  cgs      3.910e-16  1.445e-16  3.948e-16  3.945e-16  1.447e-16  5.778e-16
  cgd      3.903e-16  1.444e-16  3.903e-16  3.903e-16  1.444e-16  5.776e-16



 subckt   xbump     
 element  4:mb2     
 model    0:nch.16  
 region       Cutoff
  id       7.778e-09
  ibs     -2.446e-24
  ibd     -8.724e-18
  vgs        0.2267 
  vds      6.423e-02
  vbs        0.     
  vth        0.5223 
  vdsat    4.456e-02
  vod       -0.2956 
  beta     4.554e-03
  gam eff    0.9023 
  gm       2.169e-07
  gds      3.070e-08
  gmb      6.459e-08
  cdtot    2.671e-15
  cgtot    1.855e-15
  cstot    2.729e-15
  cbtot    4.944e-15
  cgs      5.779e-16
  cgd      5.776e-16




          ***** job concluded
1****** HSPICE -- B-2008.09 32-BIT (Aug 26 2008) winnt ******                   
 ******  
 *ota

  ******  job statistics summary tnom=  25.000 temp=  25.000 *****

  ******  HSPICE Threads Information  ******
  Command Line Threads Count:                      0
  Available CPU Count:                             4
  Actual Model Evaluation(Load) Threads Count:     1
  Actual Solver Threads Count:                     1


  ******  Circuit Statistics  ******
  # nodes       =      46  # elements   =      26
  # resistors   =       1  # capacitors =       0  # inductors   =       0
  # mutual_inds =       0  # vccs       =       0  # vcvs        =       0
  # cccs        =       0  # ccvs       =       1  # volt_srcs   =      11
  # curr_srcs   =       0  # diodes     =       0  # bjts        =       0
  # jfets       =       0  # mosfets    =      13  # U elements  =       0
  # T elements  =       0  # W elements =       0  # B elements  =       0
  # S elements  =       0  # P elements =       0  # va device   =       0


  ******  Runtime Statistics (seconds)  ******

  analysis           time    # points   tot. iter  conv.iter
  op point           0.01           1          50
  dc sweep           0.07         181         376
  ac analysis        0.10        1501        1501
  readin             0.20
  errchk             0.02
  setup              0.01
  output             0.00


           total memory used          408  kbytes
           total cpu time            0.44 seconds
           total elapsed time           1 seconds
           job started at     22:17:49 09/29/2015
           job ended   at     22:17:50 09/29/2015


 Init: hspice initialization file: C:\synopsys\Hspice_B-2008.09\hspice.ini
