 ****** HSPICE -- B-2008.09 32-BIT (Aug 26 2008) winnt ******                   
  Copyright (C) 2008 Synopsys, Inc. All Rights Reserved.                        
  Unpublished-rights reserved under US copyright laws.
  This program is protected by law and is subject to the 
  terms and conditions of the license agreement from Synopsys.
  Use of this program is your acceptance to be bound by the 
  license agreement. HSPICE is the trademark of Synopsys, Inc.
  Input File: c:\users\timer\documents\github\hspice\n,pmos\npmos.sp            
 Init: read install configuration file: C:\synopsys\Hspice_B-2008.09\meta.cfg
 Init: hspice initialization file: C:\synopsys\Hspice_B-2008.09\hspice.ini




 .options abstol=1e-7 reltol=1e-7
 + post=1 captab accurate=1 
 ***netlist***

 .param wp = 1.2u wn = 400n
 m1 vdd vg vss vss nch w = wn l = 200n
 *m2 vss vg vdd vdd pch w = wp l = 200n


  *****************diode connect********************
 *m3 vss vss idd idd pch w = 1.2u l = 200n 
 *ix idd gnd dc = -100n

 *****************stack mos************************
 *m4 in vb1 1 1 nch w = wn l = 200n
 *m5 1 vb2 vss vss nch w = wn l = 200n
 *vbias1 vb1 gnd dc = 0.7v
 *vbias2 vb2 gnd dc = 0.5v
 *iin in gnd dc = 500u
 ****************ideal stuff****************
 *hx 20 gnd vcur max=+10 min=-10 100000
 *vcur 1 gnd  dc = 0v
 *iin 1 gnd dc = 100n
 *r1 20 gnd 10k
 *.probe v(20)



 vd vdd gnd dc = 0.2v
 vs vss gnd dc = 0v

 vin vg gnd dc = 0.3v
 .op
 .dc vd 0 0.9v 0.01
 .print lx18(m1) 
 +qg = par('lx14(m1)') *gatecharge
 +lx32(m1) 
 +cap_bs	= par('lx28(m1)')
 +cap_bd	= par('lx29(m1)')
 +gm			= par('lx7(m1)')
 +gds		= par('lx8(m1)')
 .probe i(m1) lx18(m1) gds=par('lx8(m1)')
 *.dc sweep wp 1u 3u 50n
 *.dc sweep iin 10n 500n 1n
 *.probe i(m1) i(m2)

 .end


 **warning**  the accurate option increases  the cpu time but the results
                are more accurate.
 ***accurate option sets default value of the options: 
 lvltim= 4         dvdt= 3       relvar= 200.00m absvar= 200.00m
     ft= 200.00m relmos=  10.00m
 (used for FFT control ) fft_accurate= 1
 

 
      
 ******  
 *n,pmos

  ******  dc transfer curves tnom=  25.000 temp=  25.000 *****
x

        volt    lx18             qg       lx32           cap_bs   
                    m1                        m1                  
    0.            0.           0.           0.         538.5301a  
   10.00000m      0.           0.           0.         538.5301a  
   20.00000m      0.           0.           0.         538.5301a  
   30.00000m      0.           0.           0.         538.5301a  
   40.00000m      0.           0.           0.         538.5301a  
   50.00000m      0.           0.           0.         538.5301a  
   60.00000m      0.           0.           0.         538.5301a  
   70.00000m      0.           0.           0.         538.5301a  
   80.00000m      0.           0.           0.         538.5301a  
   90.00000m      0.           0.           0.         538.5301a  
  100.00000m      0.           0.           0.         538.5301a  
  110.00000m      0.           0.           0.         538.5301a  
  120.00000m      0.           0.           0.         538.5301a  
  130.00000m      0.           0.           0.         538.5301a  
  140.00000m      0.           0.           0.         538.5301a  
  150.00000m      0.           0.           0.         538.5301a  
  160.00000m      0.           0.           0.         538.5301a  
  170.00000m      0.           0.           0.         538.5301a  
  180.00000m      0.           0.           0.         538.5301a  
  190.00000m      0.           0.           0.         538.5301a  
  200.00000m      0.           0.           0.         538.5301a  
  210.00000m      0.           0.           0.         538.5301a  
  220.00000m      0.           0.           0.         538.5301a  
  230.00000m      0.           0.           0.         538.5301a  
  240.00000m      0.           0.           0.         538.5301a  
  250.00000m      0.           0.           0.         538.5301a  
  260.00000m      0.           0.           0.         538.5301a  
  270.00000m      0.           0.           0.         538.5301a  
  280.00000m      0.           0.           0.         538.5301a  
  290.00000m      0.           0.           0.         538.5301a  
  300.00000m      0.           0.           0.         538.5301a  
  310.00000m      0.           0.           0.         538.5301a  
  320.00000m      0.           0.           0.         538.5301a  
  330.00000m      0.           0.           0.         538.5301a  
  340.00000m      0.           0.           0.         538.5301a  
  350.00000m      0.           0.           0.         538.5301a  
  360.00000m      0.           0.           0.         538.5301a  
  370.00000m      0.           0.           0.         538.5301a  
  380.00000m      0.           0.           0.         538.5301a  
  390.00000m      0.           0.           0.         538.5301a  
  400.00000m      0.           0.           0.         538.5301a  
  410.00000m      0.           0.           0.         538.5301a  
  420.00000m      0.           0.           0.         538.5301a  
  430.00000m      0.           0.           0.         538.5301a  
  440.00000m      0.           0.           0.         538.5301a  
  450.00000m      0.           0.           0.         538.5301a  
  460.00000m      0.           0.           0.         538.5301a  
  470.00000m      0.           0.           0.         538.5301a  
  480.00000m      0.           0.           0.         538.5301a  
  490.00000m      0.           0.           0.         538.5301a  
  500.00000m      0.           0.           0.         538.5301a  
  510.00000m      0.           0.           0.         538.5301a  
  520.00000m      0.           0.           0.         538.5301a  
  530.00000m      0.           0.           0.         538.5301a  
  540.00000m      0.           0.           0.         538.5301a  
  550.00000m      0.           0.           0.         538.5301a  
  560.00000m      0.           0.           0.         538.5301a  
  570.00000m      0.           0.           0.         538.5301a  
  580.00000m      0.           0.           0.         538.5301a  
  590.00000m      0.           0.           0.         538.5301a  
  600.00000m      0.           0.           0.         538.5301a  
  610.00000m      0.           0.           0.         538.5301a  
  620.00000m      0.           0.           0.         538.5301a  
  630.00000m      0.           0.           0.         538.5301a  
  640.00000m      0.           0.           0.         538.5301a  
  650.00000m      0.           0.           0.         538.5301a  
  660.00000m      0.           0.           0.         538.5301a  
  670.00000m      0.           0.           0.         538.5301a  
  680.00000m      0.           0.           0.         538.5301a  
  690.00000m      0.           0.           0.         538.5301a  
  700.00000m      0.           0.           0.         538.5301a  
  710.00000m      0.           0.           0.         538.5301a  
  720.00000m      0.           0.           0.         538.5301a  
  730.00000m      0.           0.           0.         538.5301a  
  740.00000m      0.           0.           0.         538.5301a  
  750.00000m      0.           0.           0.         538.5301a  
  760.00000m      0.           0.           0.         538.5301a  
  770.00000m      0.           0.           0.         538.5301a  
  780.00000m      0.           0.           0.         538.5301a  
  790.00000m      0.           0.           0.         538.5301a  
  800.00000m      0.           0.           0.         538.5301a  
  810.00000m      0.           0.           0.         538.5301a  
  820.00000m      0.           0.           0.         538.5301a  
  830.00000m      0.           0.           0.         538.5301a  
  840.00000m      0.           0.           0.         538.5301a  
  850.00000m      0.           0.           0.         538.5301a  
  860.00000m      0.           0.           0.         538.5301a  
  870.00000m      0.           0.           0.         538.5301a  
  880.00000m      0.           0.           0.         538.5301a  
  890.00000m      0.           0.           0.         538.5301a  
  900.00000m      0.           0.           0.         538.5301a  
y
x

        volt      cap_bd         gm           gds    
                                                     
    0.          538.5301a      0.         522.7596n  
   10.00000m    538.5301a    118.5260n    396.3124n  
   20.00000m    538.5301a    206.7162n    286.6696n  
   30.00000m    538.5301a    269.3248n    197.9682n  
   40.00000m    538.5301a    312.0517n    132.9235n  
   50.00000m    538.5301a    340.8253n     89.9859n  
   60.00000m    538.5301a    360.6869n     63.7398n  
   70.00000m    538.5301a    375.1691n     48.1423n  
   80.00000m    538.5301a    386.4335n     38.7275n  
   90.00000m    538.5301a    395.7190n     32.8015n  
  100.00000m    538.5301a    403.7291n     28.8712n  
  110.00000m    538.5301a    410.8725n     26.1241n  
  120.00000m    538.5301a    417.3965n     24.1106n  
  130.00000m    538.5301a    423.4575n     22.5734n  
  140.00000m    538.5301a    429.1593n     21.3598n  
  150.00000m    538.5301a    434.5737n     20.3750n  
  160.00000m    538.5301a    439.7522n     19.5579n  
  170.00000m    538.5301a    444.7333n     18.8677n  
  180.00000m    538.5301a    449.5464n     18.2762n  
  190.00000m    538.5301a    454.2146n     17.7630n  
  200.00000m    538.5301a    458.7565n     17.3136n  
  210.00000m    538.5301a    463.1873n     16.9166n  
  220.00000m    538.5301a    467.5195n     16.5636n  
  230.00000m    538.5301a    471.7638n     16.2477n  
  240.00000m    538.5301a    475.9292n     15.9637n  
  250.00000m    538.5301a    480.0235n     15.7072n  
  260.00000m    538.5301a    484.0535n     15.4746n  
  270.00000m    538.5301a    488.0249n     15.2631n  
  280.00000m    538.5301a    491.9430n     15.0700n  
  290.00000m    538.5301a    495.8123n     14.8933n  
  300.00000m    538.5301a    499.6370n     14.7313n  
  310.00000m    538.5301a    503.4206n     14.5823n  
  320.00000m    538.5301a    507.1664n     14.4451n  
  330.00000m    538.5301a    510.8773n     14.3185n  
  340.00000m    538.5301a    514.5560n     14.2015n  
  350.00000m    538.5301a    518.2049n     14.0933n  
  360.00000m    538.5301a    521.8261n     13.9929n  
  370.00000m    538.5301a    525.4217n     13.8998n  
  380.00000m    538.5301a    528.9934n     13.8133n  
  390.00000m    538.5301a    532.5430n     13.7328n  
  400.00000m    538.5301a    536.0719n     13.6579n  
  410.00000m    538.5301a    539.5815n     13.5882n  
  420.00000m    538.5301a    543.0732n     13.5232n  
  430.00000m    538.5301a    546.5482n     13.4626n  
  440.00000m    538.5301a    550.0075n     13.4060n  
  450.00000m    538.5301a    553.4522n     13.3532n  
  460.00000m    538.5301a    556.8831n     13.3039n  
  470.00000m    538.5301a    560.3013n     13.2578n  
  480.00000m    538.5301a    563.7076n     13.2148n  
  490.00000m    538.5301a    567.1026n     13.1745n  
  500.00000m    538.5301a    570.4871n     13.1370n  
  510.00000m    538.5301a    573.8618n     13.1018n  
  520.00000m    538.5301a    577.2274n     13.0690n  
  530.00000m    538.5301a    580.5843n     13.0383n  
  540.00000m    538.5301a    583.9331n     13.0097n  
  550.00000m    538.5301a    587.2744n     12.9830n  
  560.00000m    538.5301a    590.6087n     12.9581n  
  570.00000m    538.5301a    593.9363n     12.9348n  
  580.00000m    538.5301a    597.2578n     12.9132n  
  590.00000m    538.5301a    600.5735n     12.8930n  
  600.00000m    538.5301a    603.8838n     12.8743n  
  610.00000m    538.5301a    607.1891n     12.8569n  
  620.00000m    538.5301a    610.4897n     12.8407n  
  630.00000m    538.5301a    613.7860n     12.8258n  
  640.00000m    538.5301a    617.0782n     12.8120n  
  650.00000m    538.5301a    620.3666n     12.7993n  
  660.00000m    538.5301a    623.6516n     12.7876n  
  670.00000m    538.5301a    626.9333n     12.7768n  
  680.00000m    538.5301a    630.2120n     12.7670n  
  690.00000m    538.5301a    633.4880n     12.7581n  
  700.00000m    538.5301a    636.7615n     12.7500n  
  710.00000m    538.5301a    640.0326n     12.7426n  
  720.00000m    538.5301a    643.3017n     12.7361n  
  730.00000m    538.5301a    646.5688n     12.7302n  
  740.00000m    538.5301a    649.8342n     12.7251n  
  750.00000m    538.5301a    653.0980n     12.7206n  
  760.00000m    538.5301a    656.3605n     12.7167n  
  770.00000m    538.5301a    659.6217n     12.7134n  
  780.00000m    538.5301a    662.8819n     12.7107n  
  790.00000m    538.5301a    666.1411n     12.7085n  
  800.00000m    538.5301a    669.3996n     12.7069n  
  810.00000m    538.5301a    672.6574n     12.7058n  
  820.00000m    538.5301a    675.9146n     12.7051n  
  830.00000m    538.5301a    679.1715n     12.7049n  
  840.00000m    538.5301a    682.4281n     12.7052n  
  850.00000m    538.5301a    685.6845n     12.7058n  
  860.00000m    538.5301a    688.9408n     12.7069n  
  870.00000m    538.5301a    692.1972n     12.7084n  
  880.00000m    538.5301a    695.4537n     12.7102n  
  890.00000m    538.5301a    698.7105n     12.7124n  
  900.00000m    538.5301a    701.9676n     12.7150n  
y
1****** HSPICE -- B-2008.09 32-BIT (Aug 26 2008) winnt ******                   
 ******  
 *n,pmos

  ******  operating point information tnom=  25.000 temp=  25.000 *****
 ***** operating point status is all       simulation time is     0.     
    node    =voltage      node    =voltage      node    =voltage

 +0:vdd     = 200.0000m 0:vg      = 300.0000m 0:vss     =   0.     


 maximum nodal capacitance=   1.889E-15         on node     0:vss             

    nodal  capacitance table 

    node    =    cap      node    =    cap      node    =    cap

 +0:vdd     = 641.9264a 0:vg      = 459.8000a 0:vss     =   1.8887f

 

 ****  voltage sources

 subckt                                   
 element  0:vd       0:vs       0:vin     
  volts    200.0000m    0.       300.0000m
  current  -17.6411n   17.6411n    0.     
  power      3.5282n    0.         0.     

     total voltage source power dissipation=    3.5282n       watts




 **** mosfets


 subckt             
 element  0:m1      
 model    0:nch.16  
 region       Cutoff
  id        17.6407n
  ibs     -5.547e-24
  ibd       -2.3750a
  vgs      300.0000m
  vds      200.0000m
  vbs        0.     
  vth      521.9746m
  vdsat     44.9453m
  vod     -221.9746m
  beta       1.1385m
  gam eff  902.3025m
  gm       458.7565n
  gds       17.3136n
  gmb      133.4712n
  cdtot    641.9264a
  cgtot    459.8000a
  cstot    682.8074a
  cbtot      1.2059f
  cgs      144.9055a
  cgd      144.4008a




          ***** job concluded
1****** HSPICE -- B-2008.09 32-BIT (Aug 26 2008) winnt ******                   
 ******  
 *n,pmos

  ******  job statistics summary tnom=  25.000 temp=  25.000 *****

  ******  HSPICE Threads Information  ******
  Command Line Threads Count:                      0
  Available CPU Count:                             4
  Actual Model Evaluation(Load) Threads Count:     1
  Actual Solver Threads Count:                     1


  ******  Circuit Statistics  ******
  # nodes       =       7  # elements   =       5
  # resistors   =       0  # capacitors =       0  # inductors   =       0
  # mutual_inds =       0  # vccs       =       0  # vcvs        =       0
  # cccs        =       0  # ccvs       =       0  # volt_srcs   =       4
  # curr_srcs   =       0  # diodes     =       0  # bjts        =       0
  # jfets       =       0  # mosfets    =       1  # U elements  =       0
  # T elements  =       0  # W elements =       0  # B elements  =       0
  # S elements  =       0  # P elements =       0  # va device   =       0


  ******  Runtime Statistics (seconds)  ******

  analysis           time    # points   tot. iter  conv.iter
  op point           0.01           1           4
  dc sweep           0.01          91         183
  readin             0.20
  errchk             0.01
  setup              0.03
  output             0.00


           total memory used          206  kbytes
           total cpu time            0.28 seconds
           total elapsed time           1 seconds
           job started at     15:44:55 11/10/2015
           job ended   at     15:44:56 11/10/2015


 Init: hspice initialization file: C:\synopsys\Hspice_B-2008.09\hspice.ini
