 ****** HSPICE -- B-2008.09 32-BIT (Aug 26 2008) winnt ******                   
  Copyright (C) 2008 Synopsys, Inc. All Rights Reserved.                        
  Unpublished-rights reserved under US copyright laws.
  This program is protected by law and is subject to the 
  terms and conditions of the license agreement from Synopsys.
  Use of this program is your acceptance to be bound by the 
  license agreement. HSPICE is the trademark of Synopsys, Inc.
  Input File: c:\users\timer\documents\github\study\hw1\st.sp                   
 Init: read install configuration file: C:\synopsys\Hspice_B-2008.09\meta.cfg
 Init: hspice initialization file: C:\synopsys\Hspice_B-2008.09\hspice.ini




 .options abstol=1e-7 reltol=1e-7
 + post=1 captab accurate=1 
 ***netlist***
 .subckt schimmit vdd vss in out 
 ms1p s1pd in vdd vdd p_18 w = 600n l = 360n
 ms2p out in s1pd s1pd p_18 w = 600n l = 360n
 ms1n out in s1ns s1ns n_18 w = 400n l = 360n
 ms2n s1ns in vss vss n_18 w = 400n l =360n

 ms3p vss out s1pd s1pd p_18 w = 400n l = 360n
 ms3n vdd out s1ns s1ns n_18 w = 400n l = 360n
 .ends

 xschimmit vdd vss in out schimmit
 vd vdd 0 dc = 1.2v
 vs vss 0 dc = 0v
 *vin in 0 dc = 0.6v pulse(0 1.2v 1ns 1ns 1ns 99ns 200ns)
 vin in 0 dc=0.7sv pulse(0 1.2v 1ns 50ns 50ns 0ns 100ns)

 .op
 .dc sweep vin 1.2 0 0.01
 .tran 1ns 600ns
 *.meas  drop trig v(out) val=1.18 fall=2 targ v(in) 
 .meas tran drop when v(out) = 1.18v fall = 1
 .meas tran drop_val find v(in) at = drop
 .meas tran rise when v(out) = 0.02 rise = 1
 .meas tran rise_val find v(in) at = rise
 .meas tran hysteresis param = 'drop_val - rise_val'

 ***********************************************************************
 ** runlvl is invoked, you can disable it by:
      a) Add option runlvl=0 to your current simulation job.
      b) Copy $installdir/hspice.ini to your HOME directory and
         customize it by adding option runlvl=0, which disables
         it for all of your simulation jobs.
      c) Re-invoke $installdir/bin/config program and unselect the
         option runlvl setting in box 'hspice.ini' which disables
         it for whole group simulation jobs.

 ** runlvl is invoked, some options are ignored or automatically set:
      Options below are automatically set(user setting will overwrite them):
      if runlvl=[1|2|3|4|5|6],  .option bypass=2

      Options below are ignored, they are replaced by automated algorithms:
        lvltim    dvdt      ft    fast   trtol  absvar  relvar
          relq  chgtol    dvtr    imin    itl3    rmax

 ** runlvl is invoked, actual option value used by HSPICE are:
       runlvl= 5       bypass= 2      mbypass=   2.00   bytol= 100.00n
 ***********************************************************************

1****** HSPICE -- B-2008.09 32-BIT (Aug 26 2008) winnt ******                   
 ******  
 *hw1

  ******  circuit name directory
 circuit number to circuit name directory
   number circuitname                     definition         multiplier
        0 main circuit
        1 xschimmit.                      schimmit           1.00 
 

 
      
  Opening plot unit= 79
 file=c:\users\timer\documents\github\study\hw1\st.pa0                         

 convergence problems in dc sweep curves at  0.40000    
  resimulating with dc convergence controls

1****** HSPICE -- B-2008.09 32-BIT (Aug 26 2008) winnt ******                   
 ******  
 *hw1

  ******  operating point information tnom=  25.000 temp=  25.000 *****
 ***** operating point status is all       simulation time is     0.     
    node    =voltage      node    =voltage      node    =voltage

 +0:in      = 700.0000m 0:out     =   1.0129  0:vdd     =   1.2000 
 +0:vss     =   0.      1:s1ns    = 331.7844m 1:s1pd    =   1.1718 


 maximum nodal capacitance=   6.055E-15         on node     1:s1pd            

    nodal  capacitance table 

    node    =    cap      node    =    cap      node    =    cap

 +0:in      =   3.5656f 0:out     =   3.2466f 0:vdd     =   3.8499f
 +0:vss     =   3.4718f 1:s1ns    =   5.6484f 1:s1pd    =   6.0549f

 

 ****  voltage sources

 subckt                                   
 element  0:vd       0:vs       0:vin     
  volts      1.2000     0.       700.0000m
  current   -9.0682u    9.0682u    0.     
  power     10.8818u    0.         0.     

     total voltage source power dissipation=   10.8818u       watts




 **** mosfets


 subckt   xschimmit  xschimmit  xschimmit  xschimmit  xschimmit  xschimmit 
 element  1:ms1p     1:ms2p     1:ms1n     1:ms2n     1:ms3p     1:ms3n    
 model    0:p_18.1   0:p_18.1   0:n_18.1   0:n_18.1   0:p_18.1   0:n_18.1  
 region       Cutoff     Cutoff     Cutoff   Saturati     Cutoff   Saturati
  id       -48.9354n  -48.9142n   48.9132n    9.0681u  -18.5847p    9.0192u
  ibs      1.190e-23  1.189e-23 -2.569e-23 -4.763e-21  6.307e-27 -4.737e-21
  ibd        1.9799a   11.1414a  -68.8019a  -33.5081a   71.9376a  -87.6920a
  vgs     -500.0000m -471.7740m  368.2156m  700.0000m -158.8362m  681.1534m
  vds      -28.2260m -158.8362m  681.1534m  331.7844m   -1.1718   868.2156m
  vbs        0.         0.         0.         0.         0.         0.     
  vth     -537.2607m -537.2606m  474.5135m  480.8184m -534.0260m  471.1523m
  vdsat    -68.0109m  -60.4330m   51.5985m  220.3883m  -48.8212m  214.0280m
  vod       37.2607m   65.4865m -106.2979m  219.1816m  375.1897m  210.0011m
  beta     117.8258u  118.0383u  364.0532u  361.8351u   78.1488u  362.5127u
  gam eff  557.0847m  557.0847m  507.4459m  507.4472m  557.0847m  507.4472m
  gm       866.1871n    1.0463u    1.2611u   66.0307u  502.8215p   70.0463u
  gds        1.2631u   17.6611n   24.2923n    4.2510u    2.2018p    1.6666u
  gmb      254.5946n  305.8495n  210.6346n   10.8453u  166.2069p   11.3127u
  cdtot      1.0622f  938.8755a  644.5657a  705.9610a  552.3766a  624.7032a
  cgtot      1.0133f  893.2557a  538.7506a    1.1203f  548.6134a    1.1145f
  cstot      1.3226f    1.1700f  780.6504a    1.5615f  721.5902a    1.5611f
  cbtot      1.9026f    1.8525f    1.3114f    1.3579f    1.2486f    1.2893f
  cgs      492.2094a  366.3143a  171.2758a  873.7760a  143.5100a  869.7875a
  cgd      248.7074a  215.6791a  155.0985a  149.8338a  143.4800a  144.6653a



1****** HSPICE -- B-2008.09 32-BIT (Aug 26 2008) winnt ******                   
 ******  
 *hw1

  ******  operating point information tnom=  25.000 temp=  25.000 *****
 ***** operating point status is voltage   simulation time is     0.     
    node    =voltage      node    =voltage      node    =voltage

 +0:in      =   0.      0:out     =   1.2000  0:vdd     =   1.2000 
 +0:vss     =   0.      1:s1ns    =   1.1248  1:s1pd    =   1.2000 


 maximum nodal capacitance=   9.087E-15         on node     1:s1pd            

    nodal  capacitance table 

    node    =    cap      node    =    cap      node    =    cap

 +0:in      =   5.6052f 0:out     =   4.5246f 0:vdd     =   5.1903f
 +0:vss     =   2.6261f 1:s1ns    =   5.7494f 1:s1pd    =   9.0872f

 
 ******  
 *hw1

  ******  transient analysis tnom=  25.000 temp=  25.000 *****
   drop=  3.2854E-08
   drop_val=  7.6450E-01
   rise=  8.3786E-08
   rise_val=  4.1315E-01
   hysteresis=  3.5135E-01

          ***** job concluded
1****** HSPICE -- B-2008.09 32-BIT (Aug 26 2008) winnt ******                   
 ******  
 *hw1

  ******  job statistics summary tnom=  25.000 temp=  25.000 *****

  ******  HSPICE Threads Information  ******
  Command Line Threads Count:                      0
  Available CPU Count:                             4
  Actual Model Evaluation(Load) Threads Count:     1
  Actual Solver Threads Count:                     1


  ******  Circuit Statistics  ******
  # nodes       =      19  # elements   =       9
  # resistors   =       0  # capacitors =       0  # inductors   =       0
  # mutual_inds =       0  # vccs       =       0  # vcvs        =       0
  # cccs        =       0  # ccvs       =       0  # volt_srcs   =       3
  # curr_srcs   =       0  # diodes     =       0  # bjts        =       0
  # jfets       =       0  # mosfets    =       6  # U elements  =       0
  # T elements  =       0  # W elements =       0  # B elements  =       0
  # S elements  =       0  # P elements =       0  # va device   =       0


  ******  Runtime Statistics (seconds)  ******

  analysis           time    # points   tot. iter  conv.iter
  op point           0.02           1         129
  dc sweep           0.02         121         564
  transient          0.19         601        2922        1009 rev=       229
  readin             0.14
  errchk             0.01
  setup              0.03
  output             0.00


           total memory used          205  kbytes
           total cpu time            0.49 seconds
           total elapsed time           1 seconds
           job started at     22:56:23 07/18/2015
           job ended   at     22:56:23 07/18/2015


 Init: hspice initialization file: C:\synopsys\Hspice_B-2008.09\hspice.ini
