 ****** HSPICE -- B-2008.09 32-BIT (Aug 26 2008) winnt ******                   
  Copyright (C) 2008 Synopsys, Inc. All Rights Reserved.                        
  Unpublished-rights reserved under US copyright laws.
  This program is protected by law and is subject to the 
  terms and conditions of the license agreement from Synopsys.
  Use of this program is your acceptance to be bound by the 
  license agreement. HSPICE is the trademark of Synopsys, Inc.
  Input File: c:\users\timer\documents\github\hspice\pwmadc\vco.sp              
 Init: read install configuration file: C:\synopsys\Hspice_B-2008.09\meta.cfg
 Init: hspice initialization file: C:\synopsys\Hspice_B-2008.09\hspice.ini




 .options abstol=1e-7 reltol=1e-7
 + post=1 captab accurate=1




 .subckt schimmit vdd vss in out 
 ms1p s1pd in vdd vdd pch w = 1.2u l = 360n
 ms2p out in s1pd s1pd pch w = 1.2u l = 360n
 ms1n out in s1ns s1ns nch w = 400n l = 360n
 ms2n s1ns in vss vss nch w = 400n l =360n

 ms3p vss out s1pd s1pd pch w = 400n l = 360n
 ms3n vdd out s1ns s1ns nch w = 400n l = 360n
 .ends

 .subckt inverter vdd vss in out
 m1 out in vdd vdd pch w = 2.3u l = 0.5u
 m2 out in vss vss nch w = 1u l = 0.5u
 .ends

 .subckt vco_amp vdd vss in out vf
 m6 1 1 vdd vdd pch w = 1.2u l = 360n
 m5 1 in vss vss nch w = 400n l = 360n 

 m4 2 1 vdd vdd pch w = 1.2u l = 360n m = 5
 m3 out vf 2 vdd pch w = 1.2u l = 360n m = 5
 m2 out vf 3 vss nch w = 400n l = 360n
 m1 3 vf vss vss nch w = 400n l = 360n
 .ends

 xvco_amp vdd vss cv_in st_in vf vco_amp
 xschimmit vdd vss st_in st_out schimmit
 xinverter vdd vss st_out osc_out inverter
 v0 osc_out vf dc = 0v
 cl st_in gnd 1p 

 .param vd = 1.8

 vdd vdd gnd dc = vd
 vss vss gnd dc = 0v
 .ic osc_out = 0v

 vin cv_in gnd dc = 0.6v
 *v_osc vf gnd dc = 0.6v




 .op
 .tran 1ns 1us  sweep vin 0.2 0.8 0.01
 *.meas voscin val = v(vin)
 .meas period trig v(osc_out) val = 0.6v rise = 3
 +targ v(osc_out) val = 0.6v rise = 4
 .meas poslength trig v(osc_out) val = 0.6v rise = 3
 +targ v(osc_out) val = 0.6v fall = 3

 *.alter 
 *vin cv_in gnd dc = 0.7v



 .end

 ***********************************************************************
 ** runlvl is invoked, you can disable it by:
      a) Add option runlvl=0 to your current simulation job.
      b) Copy $installdir/hspice.ini to your HOME directory and
         customize it by adding option runlvl=0, which disables
         it for all of your simulation jobs.
      c) Re-invoke $installdir/bin/config program and unselect the
         option runlvl setting in box 'hspice.ini' which disables
         it for whole group simulation jobs.

 ** runlvl is invoked, some options are ignored or automatically set:
      Options below are automatically set(user setting will overwrite them):
      if runlvl=[1|2|3|4|5|6],  .option bypass=2

      Options below are ignored, they are replaced by automated algorithms:
        lvltim    dvdt      ft    fast   trtol  absvar  relvar
          relq  chgtol    dvtr    imin    itl3    rmax

 ** runlvl is invoked, actual option value used by HSPICE are:
       runlvl= 5       bypass= 2      mbypass=   2.00   bytol= 100.00n
 ***********************************************************************

1****** HSPICE -- B-2008.09 32-BIT (Aug 26 2008) winnt ******                   
 ******  
 *voltage controlled oscillator

  ******  circuit name directory
 circuit number to circuit name directory
   number circuitname                     definition         multiplier
        0 main circuit
        1 xvco_amp.                       vco_amp            1.00 
        2 xschimmit.                      schimmit           1.00 
        3 xinverter.                      inverter           1.00 
 

 
      
  Opening plot unit= 79
 file=c:\users\timer\documents\github\hspice\pwmadc\vco.pa0                    

1****** HSPICE -- B-2008.09 32-BIT (Aug 26 2008) winnt ******                   
 ******  
 *voltage controlled oscillator

  ******  operating point information tnom=  25.000 temp=  25.000 *****
 ***** operating point status is all       simulation time is     0.     
    node    =voltage      node    =voltage      node    =voltage

 +0:cv_in   = 600.0000m 0:osc_out =   1.7650u 0:st_in   =   1.8000 
 +0:st_out  =  16.4447n 0:vdd     =   1.8000  0:vf      =   1.7650u
 +0:vss     =   0.      1:1       =   1.1256  1:2       =   1.8000 
 +1:3       =  72.0235m 2:s1ns    =  16.0204n 2:s1pd    =  88.6595m


 maximum nodal capacitance=   1.043E-12         on node     0:st_in           

    nodal  capacitance table 

    node    =    cap      node    =    cap      node    =    cap

 +0:cv_in   =   1.0953f 0:osc_out =   4.0107f 0:st_in   =   1.0427p
 +0:st_out  =  16.0830f 0:vdd     = 101.2523f 0:vf      =  22.4837f
 +0:vss     =  14.7898f 1:1       =  25.5174f 1:2       =  58.4232f
 +1:3       =   1.3321f 2:s1ns    =   7.2459f 2:s1pd    =  12.3098f

 

 ****  voltage sources

 subckt                                              
 element  0:v0       0:vdd      0:vss      0:vin     
  volts      0.         1.8000     0.       600.0000m
  current -2.711e-20 -181.5193u    5.0241u    0.     
  power      0.       326.7347u    0.         0.     

     total voltage source power dissipation=  326.7347u       watts




 **** mosfets


 subckt   xvco_amp   xvco_amp   xvco_amp   xvco_amp   xvco_amp   xvco_amp  
 element  1:m6       1:m5       1:m4       1:m3       1:m2       1:m1      
 model    0:pch.8    0:nch.16   0:pch.8    0:pch.8    0:nch.16   0:nch.16  
 region     Saturati   Saturati     Linear     Linear     Cutoff     Cutoff
  id        -5.0241u    5.0241u   -3.6976p   -3.6978p  170.2969f    1.6822p
  ibs      9.292e-22 -1.579e-21  6.842e-28  1.326e-23   -2.2320a -5.516e-28
  ibd        3.9886a  -18.5158p  1.326e-23  1.590e-23 -134.0417a   -2.2320a
  vgs     -674.4398m  600.0000m -674.4398m   -1.8000   -72.0218m    1.7650u
  vds     -674.4398m    1.1256   -17.2088n   -3.4228n    1.7280    72.0235m
  vbs        0.         0.         0.        17.2088n  -72.0235m    0.     
  vth     -470.0800m  484.5784m -470.8002m -470.8002m  503.3887m  485.3910m
  vdsat   -195.6896m  136.0063m -195.1940m -919.0814m   44.1196m   43.8437m
  vod     -204.3598m  115.4216m -203.6396m   -1.3292  -575.4105m -485.3892m
  beta     225.3148u  494.8525u    1.1264m  910.6760u  497.8662u  498.6247u
  gam eff  626.9907m  639.8883m  626.9907m  626.9907m  642.2136m  639.8878m
  gm        40.9801u   56.0069u   17.3871p    1.8330p    5.1470p   50.4316p
  gds      614.3103n  589.0497n  214.8898u    1.0809m   37.5805f    3.9037p
  gmb       13.9890u   15.1669u    6.3780p    1.2383p    1.5384p   15.6200p
  cdtot      1.6249f  546.1200a   29.5082f   33.1253f  510.3307a  666.0425a
  cgtot      3.4150f    1.0953f   19.9314f   21.2635f  610.1013a  610.1011a
  cstot      4.7454f    1.5075f   26.8406f   28.9150f  666.0425a  682.1514a
  cbtot      3.6841f    1.2305f   20.8305f   20.7906f    1.2089f    1.3807f
  cgs        2.8237f  837.7987a   10.6738f   11.0809f  144.4112a  144.4114a
  cgd      389.1771a  144.0102a    9.1526f   10.4649f  144.4010a  144.4010a



 subckt   xschimmit  xschimmit  xschimmit  xschimmit  xschimmit  xschimmit 
 element  2:ms1p     2:ms2p     2:ms1n     2:ms2n     2:ms3p     2:ms3n    
 model    0:pch.8    0:pch.8    0:nch.16   0:nch.16   0:pch.16   0:nch.16  
 region       Cutoff     Cutoff     Linear     Linear     Cutoff     Cutoff
  id        -1.2816p    0.       177.3228f    6.6940p   -4.3497p    2.9135p
  ibs      5.536e-28    0.         0.      -2.105e-27  1.219e-27 -1.482e-27
  ibd       22.7481a    3.8344a -3.919e-26 -1.479e-24    1.8978a   -3.1208f
  vgs      -20.6316n    1.7113     1.8000     1.8000   -88.6595m  424.3789p
  vds       -1.7113   -88.6595m  424.3789p   16.0204n  -88.6595m    1.8000 
  vbs        0.         0.         0.         0.         0.         0.     
  vth     -468.9676m -470.7053m  485.4468m  485.4468m -464.0121m  484.0505m
  vdsat    -40.5325m  -40.5326m  702.9327m  702.9327m  -39.8407m   43.8435m
  vod      468.9676m    2.1820     1.3146     1.3146   375.3526m -484.0505m
  beta     232.6218u  232.5032u  395.8942u  395.8942u   77.4295u  498.6909u
  gam eff  626.9907m  626.9907m  639.8878m  639.8878m  530.9940m  639.8878m
  gm        38.9814p    0.        71.9176f    2.7149p  133.5241p   87.3427p
  gds      355.0678f    0.       419.0314u  419.0314u    4.9499p  621.8388f
  gmb       14.5080p    0.        40.2089f    1.5179p   46.1592p   26.7050p
  cdtot      1.3991f    1.8729f    2.0730f    2.0730f  748.7858a  510.3307a
  cgtot      1.7731f    4.3913f    1.4385f    1.4385f  567.9067a  610.1014a
  cstot      1.9294f    1.9294f    1.8632f    1.8632f  772.1072a  682.1515a
  cbtot      3.5402f    6.6321f    1.4025f    1.4025f    1.5771f    1.2250f
  cgs      390.3532a  390.4393a  709.7232a  709.7232a  127.9351a  144.4114a
  cgd      390.3200a  390.3200a  706.0310a  706.0310a  127.9200a  144.4010a



 subckt   xinverter  xinverter 
 element  3:m1       3:m2      
 model    0:pch.7    0:nch.11  
 region     Saturati     Cutoff
  id      -176.4952u  104.3769a
  ibs      2.880e-20    0.     
  ibd        2.5123f -2.885e-22
  vgs       -1.8000    16.4447n
  vds       -1.8000     1.7650u
  vbs        0.         0.     
  vth     -463.8733m  493.6221m
  vdsat   -962.9238m   43.6073m
  vod       -1.3361  -493.6221m
  beta     250.3614u  801.4230u
  gam eff  568.5589m  589.5758m
  gm       205.1628u    3.1580f
  gds        6.3272u   59.1373p
  gmb       79.6475u    1.0293f
  cdtot      2.5457f    1.4650f
  cgtot      9.1313f    1.8278f
  cstot     11.7686f    1.4650f
  cbtot      6.6126f    3.3005f
  cgs        8.3334f  364.3372a
  cgd      752.0817a  364.3015a



1****** HSPICE -- B-2008.09 32-BIT (Aug 26 2008) winnt ******                   
 ******  
 *voltage controlled oscillator

  ******  transient analysis tnom=  25.000 temp=  25.000 *****
 ***** operating point status is voltage   simulation time is     0.     

   *** source        0:vin              =    2.000E-01 ***

    node    =voltage      node    =voltage      node    =voltage

 +0:cv_in   = 200.0000m 0:osc_out =   1.7650u 0:st_in   =   1.8000 
 +0:st_out  =  16.4449n 0:vdd     =   1.8000  0:vf      =   1.7650u
 +0:vss     =   0.      1:1       =   1.5637  1:2       =   1.8000 
 +1:3       =  72.0222m 2:s1ns    =  16.0205n 2:s1pd    =  88.6648m


 maximum nodal capacitance=   1.043E-12         on node     0:st_in           

    nodal  capacitance table 

    node    =    cap      node    =    cap      node    =    cap

 +0:cv_in   = 582.6041a 0:osc_out =   4.0107f 0:st_in   =   1.0427p
 +0:st_out  =  16.0830f 0:vdd     =  80.4648f 0:vf      =  22.4837f
 +0:vss     =  13.9423f 1:1       =  12.3970f 1:2       =  38.5737f
 +1:3       =   1.3321f 2:s1ns    =   7.2459f 2:s1pd    =  12.3098f

 
 ******  
 *voltage controlled oscillator

  ******  transient analysis tnom=  25.000 temp=  25.000 *****
   period= failed                          trig= not found
   poslength= failed                          trig= not found

          ***** job concluded
1****** HSPICE -- B-2008.09 32-BIT (Aug 26 2008) winnt ******                   
 ******  
 *voltage controlled oscillator

  ******  transient analysis tnom=  25.000 temp=  25.000 *****
 ***** operating point status is voltage   simulation time is     0.     

   *** source        0:vin              =    2.100E-01 ***

    node    =voltage      node    =voltage      node    =voltage

 +0:cv_in   = 210.0000m 0:osc_out =   1.7650u 0:st_in   =   1.8000 
 +0:st_out  =  16.4449n 0:vdd     =   1.8000  0:vf      =   1.7650u
 +0:vss     =   0.      1:1       =   1.5538  1:2       =   1.8000 
 +1:3       =  72.0226m 2:s1ns    =  16.0205n 2:s1pd    =  88.6635m


 maximum nodal capacitance=   1.043E-12         on node     0:st_in           

    nodal  capacitance table 

    node    =    cap      node    =    cap      node    =    cap

 +0:cv_in   = 581.4452a 0:osc_out =   4.0107f 0:st_in   =   1.0427p
 +0:st_out  =  16.0830f 0:vdd     =  80.4449f 0:vf      =  22.4837f
 +0:vss     =  13.9417f 1:1       =  12.3756f 1:2       =  38.5779f
 +1:3       =   1.3321f 2:s1ns    =   7.2459f 2:s1pd    =  12.3098f

 
 ******  
 *voltage controlled oscillator

  ******  transient analysis tnom=  25.000 temp=  25.000 *****
   period= failed                          trig= not found
   poslength= failed                          trig= not found

          ***** job concluded
1****** HSPICE -- B-2008.09 32-BIT (Aug 26 2008) winnt ******                   
 ******  
 *voltage controlled oscillator

  ******  transient analysis tnom=  25.000 temp=  25.000 *****
 ***** operating point status is voltage   simulation time is     0.     

   *** source        0:vin              =    2.200E-01 ***

    node    =voltage      node    =voltage      node    =voltage

 +0:cv_in   = 220.0000m 0:osc_out =   1.7650u 0:st_in   =   1.8000 
 +0:st_out  =  16.4449n 0:vdd     =   1.8000  0:vf      =   1.7650u
 +0:vss     =   0.      1:1       =   1.5440  1:2       =   1.8000 
 +1:3       =  72.0228m 2:s1ns    =  16.0205n 2:s1pd    =  88.6626m


 maximum nodal capacitance=   1.043E-12         on node     0:st_in           

    nodal  capacitance table 

    node    =    cap      node    =    cap      node    =    cap

 +0:cv_in   = 580.3126a 0:osc_out =   4.0107f 0:st_in   =   1.0427p
 +0:st_out  =  16.0830f 0:vdd     =  80.4270f 0:vf      =  22.4837f
 +0:vss     =  13.9411f 1:1       =  12.3553f 1:2       =  38.5837f
 +1:3       =   1.3321f 2:s1ns    =   7.2459f 2:s1pd    =  12.3098f

 
 ******  
 *voltage controlled oscillator

  ******  transient analysis tnom=  25.000 temp=  25.000 *****
   period= failed                          trig= not found
   poslength= failed                          trig= not found

          ***** job concluded
1****** HSPICE -- B-2008.09 32-BIT (Aug 26 2008) winnt ******                   
 ******  
 *voltage controlled oscillator

  ******  transient analysis tnom=  25.000 temp=  25.000 *****
 ***** operating point status is voltage   simulation time is     0.     

   *** source        0:vin              =    2.300E-01 ***

    node    =voltage      node    =voltage      node    =voltage

 +0:cv_in   = 230.0000m 0:osc_out =   1.7650u 0:st_in   =   1.8000 
 +0:st_out  =  16.4448n 0:vdd     =   1.8000  0:vf      =   1.7650u
 +0:vss     =   0.      1:1       =   1.5340  1:2       =   1.8000 
 +1:3       =  72.0232m 2:s1ns    =  16.0204n 2:s1pd    =  88.6618m


 maximum nodal capacitance=   1.043E-12         on node     0:st_in           

    nodal  capacitance table 

    node    =    cap      node    =    cap      node    =    cap

 +0:cv_in   = 579.2099a 0:osc_out =   4.0107f 0:st_in   =   1.0427p
 +0:st_out  =  16.0830f 0:vdd     =  80.4116f 0:vf      =  22.4837f
 +0:vss     =  13.9405f 1:1       =  12.3366f 1:2       =  38.5916f
 +1:3       =   1.3321f 2:s1ns    =   7.2459f 2:s1pd    =  12.3098f

 
 ******  
 *voltage controlled oscillator

  ******  transient analysis tnom=  25.000 temp=  25.000 *****
   period= failed                          trig= not found
   poslength= failed                          trig= not found

          ***** job concluded
1****** HSPICE -- B-2008.09 32-BIT (Aug 26 2008) winnt ******                   
 ******  
 *voltage controlled oscillator

  ******  transient analysis tnom=  25.000 temp=  25.000 *****
 ***** operating point status is voltage   simulation time is     0.     

   *** source        0:vin              =    2.400E-01 ***

    node    =voltage      node    =voltage      node    =voltage

 +0:cv_in   = 240.0000m 0:osc_out =   1.7650u 0:st_in   =   1.8000 
 +0:st_out  =  16.4448n 0:vdd     =   1.8000  0:vf      =   1.7650u
 +0:vss     =   0.      1:1       =   1.5241  1:2       =   1.8000 
 +1:3       =  72.0233m 2:s1ns    =  16.0204n 2:s1pd    =  88.6612m


 maximum nodal capacitance=   1.043E-12         on node     0:st_in           

    nodal  capacitance table 

    node    =    cap      node    =    cap      node    =    cap

 +0:cv_in   = 578.1419a 0:osc_out =   4.0107f 0:st_in   =   1.0427p
 +0:st_out  =  16.0830f 0:vdd     =  80.3996f 0:vf      =  22.4837f
 +0:vss     =  13.9400f 1:1       =  12.3201f 1:2       =  38.6024f
 +1:3       =   1.3321f 2:s1ns    =   7.2459f 2:s1pd    =  12.3098f

 
 ******  
 *voltage controlled oscillator

  ******  transient analysis tnom=  25.000 temp=  25.000 *****
   period= failed                          trig= not found
   poslength= failed                          trig= not found

          ***** job concluded
1****** HSPICE -- B-2008.09 32-BIT (Aug 26 2008) winnt ******                   
 ******  
 *voltage controlled oscillator

  ******  transient analysis tnom=  25.000 temp=  25.000 *****
 ***** operating point status is voltage   simulation time is     0.     

   *** source        0:vin              =    2.500E-01 ***

    node    =voltage      node    =voltage      node    =voltage

 +0:cv_in   = 250.0000m 0:osc_out =   1.7650u 0:st_in   =   1.8000 
 +0:st_out  =  16.4448n 0:vdd     =   1.8000  0:vf      =   1.7650u
 +0:vss     =   0.      1:1       =   1.5141  1:2       =   1.8000 
 +1:3       =  72.0233m 2:s1ns    =  16.0204n 2:s1pd    =  88.6608m


 maximum nodal capacitance=   1.043E-12         on node     0:st_in           

    nodal  capacitance table 

    node    =    cap      node    =    cap      node    =    cap

 +0:cv_in   = 577.1156a 0:osc_out =   4.0107f 0:st_in   =   1.0427p
 +0:st_out  =  16.0830f 0:vdd     =  80.3924f 0:vf      =  22.4837f
 +0:vss     =  13.9396f 1:1       =  12.3064f 1:2       =  38.6171f
 +1:3       =   1.3321f 2:s1ns    =   7.2459f 2:s1pd    =  12.3098f

 
 ******  
 *voltage controlled oscillator

  ******  transient analysis tnom=  25.000 temp=  25.000 *****
   period= failed                          trig= not found
   poslength= failed                          trig= not found

          ***** job concluded
1****** HSPICE -- B-2008.09 32-BIT (Aug 26 2008) winnt ******                   
 ******  
 *voltage controlled oscillator

  ******  transient analysis tnom=  25.000 temp=  25.000 *****
 ***** operating point status is voltage   simulation time is     0.     

   *** source        0:vin              =    2.600E-01 ***

    node    =voltage      node    =voltage      node    =voltage

 +0:cv_in   = 260.0000m 0:osc_out =   1.7650u 0:st_in   =   1.8000 
 +0:st_out  =  16.4448n 0:vdd     =   1.8000  0:vf      =   1.7650u
 +0:vss     =   0.      1:1       =   1.5040  1:2       =   1.8000 
 +1:3       =  72.0234m 2:s1ns    =  16.0204n 2:s1pd    =  88.6605m


 maximum nodal capacitance=   1.043E-12         on node     0:st_in           

    nodal  capacitance table 

    node    =    cap      node    =    cap      node    =    cap

 +0:cv_in   = 576.1402a 0:osc_out =   4.0107f 0:st_in   =   1.0427p
 +0:st_out  =  16.0830f 0:vdd     =  80.3914f 0:vf      =  22.4837f
 +0:vss     =  13.9392f 1:1       =  12.2965f 1:2       =  38.6371f
 +1:3       =   1.3321f 2:s1ns    =   7.2459f 2:s1pd    =  12.3098f

 
 ******  
 *voltage controlled oscillator

  ******  transient analysis tnom=  25.000 temp=  25.000 *****
   period= failed                          trig= not found
   poslength= failed                          trig= not found

          ***** job concluded
1****** HSPICE -- B-2008.09 32-BIT (Aug 26 2008) winnt ******                   
 ******  
 *voltage controlled oscillator

  ******  transient analysis tnom=  25.000 temp=  25.000 *****
 ***** operating point status is voltage   simulation time is     0.     

   *** source        0:vin              =    2.700E-01 ***

    node    =voltage      node    =voltage      node    =voltage

 +0:cv_in   = 270.0000m 0:osc_out =   1.7650u 0:st_in   =   1.8000 
 +0:st_out  =  16.4448n 0:vdd     =   1.8000  0:vf      =   1.7650u
 +0:vss     =   0.      1:1       =   1.4939  1:2       =   1.8000 
 +1:3       =  72.0235m 2:s1ns    =  16.0204n 2:s1pd    =  88.6602m


