 ****** HSPICE -- B-2008.09 32-BIT (Aug 26 2008) winnt ******                   
  Copyright (C) 2008 Synopsys, Inc. All Rights Reserved.                        
  Unpublished-rights reserved under US copyright laws.
  This program is protected by law and is subject to the 
  terms and conditions of the license agreement from Synopsys.
  Use of this program is your acceptance to be bound by the 
  license agreement. HSPICE is the trademark of Synopsys, Inc.
  Input File: c:\users\timer\documents\github\hspice\pwmadc\vco\vco.sp          
 Init: read install configuration file: C:\synopsys\Hspice_B-2008.09\meta.cfg
 Init: hspice initialization file: C:\synopsys\Hspice_B-2008.09\hspice.ini




 .options abstol=1e-7 reltol=1e-7
 + post=1 captab accurate=1




 .subckt schimmit vdd vss in out 
 ms1p s1pd in vdd vdd pch w = 1.2u l = 200n
 ms2p out in s1pd s1pd pch w = 1.2u l = 200n
 ms1n out in s1ns s1ns nch w = 400n l = 200n
 ms2n s1ns in vss vss nch w = 400n l =200n

 ms3p vss out s1pd s1pd pch w = 400n l = 200n
 ms3n vdd out s1ns s1ns nch w = 400n l = 200n
 .ends

 .subckt inverter vdd vss in out
 m1 out in vdd vdd pch w = 2.3u l = 0.5u
 m2 out in vss vss nch w = 1u l = 0.5u
 .ends

 .subckt vco_amp vdd vss in out vf
 m6 1 1 vdd vdd pch w = 1.2u l = 200n
 m5 1 in vss vss nch w = 400n l = 200n 

 m4 2 1 vdd vdd pch w = 1.2u l = 200n m = 5
 m3 out vf 2 vdd pch w = 1.2u l = 200n m = 5
 m2 out vf 3 vss nch w = 400n l = 200n
 m1 3 vf vss vss nch w = 400n l = 200n
 .ends

 .subckt ota vdd vss vbias winp winn
 .ends

 xvco_amp vdd vss cv_in st_in vf vco_amp
 xschimmit vdd vss st_in st_out schimmit
 xinverter vdd vss st_out osc_out inverter
 v0 osc_out vf dc = 0v
 cl st_in gnd 1p 

 .param vd = 1.8

 vdd vdd gnd dc = vd
 vss vss gnd dc = 0v
 .ic osc_out = 0v

 vin cv_in gnd dc = 0.9v
 *v_osc vf gnd dc = 0.9v




 .op
 .tran 1ns 1us  sweep vin 0.2 0.8 0.01
 *.meas voscin val = v(vin)
 .meas period trig v(osc_out) val = 0.6v rise = 3
 +targ v(osc_out) val = 0.6v rise = 4
 .meas poslength trig v(osc_out) val = 0.6v rise = 3
 +targ v(osc_out) val = 0.6v fall = 3
 .probe tran period
 **warning** unrecognized output type period   on above line,ignored.


 *.alter 
 *vin cv_in gnd dc = 0.7v



 .end

 ***********************************************************************
 ** runlvl is invoked, you can disable it by:
      a) Add option runlvl=0 to your current simulation job.
      b) Copy $installdir/hspice.ini to your HOME directory and
         customize it by adding option runlvl=0, which disables
         it for all of your simulation jobs.
      c) Re-invoke $installdir/bin/config program and unselect the
         option runlvl setting in box 'hspice.ini' which disables
         it for whole group simulation jobs.

 ** runlvl is invoked, some options are ignored or automatically set:
      Options below are automatically set(user setting will overwrite them):
      if runlvl=[1|2|3|4|5|6],  .option bypass=2

      Options below are ignored, they are replaced by automated algorithms:
        lvltim    dvdt      ft    fast   trtol  absvar  relvar
          relq  chgtol    dvtr    imin    itl3    rmax

 ** runlvl is invoked, actual option value used by HSPICE are:
       runlvl= 5       bypass= 2      mbypass=   2.00   bytol= 100.00n
 ***********************************************************************

1****** HSPICE -- B-2008.09 32-BIT (Aug 26 2008) winnt ******                   
 ******  
 *voltage controlled oscillator

  ******  circuit name directory
 circuit number to circuit name directory
   number circuitname                     definition         multiplier
        0 main circuit
        1 xvco_amp.                       vco_amp            1.00 
        2 xschimmit.                      schimmit           1.00 
        3 xinverter.                      inverter           1.00 
 

 
      
  Opening plot unit= 79
 file=c:\users\timer\documents\github\hspice\pwmadc\vco\vco.pa0                

1****** HSPICE -- B-2008.09 32-BIT (Aug 26 2008) winnt ******                   
 ******  
 *voltage controlled oscillator

  ******  operating point information tnom=  25.000 temp=  25.000 *****
 ***** operating point status is all       simulation time is     0.     
    node    =voltage      node    =voltage      node    =voltage

 +0:cv_in   = 900.0000m 0:osc_out =   1.7650u 0:st_in   =   1.8000 
 +0:st_out  =  15.5131n 0:vdd     =   1.8000  0:vf      =   1.7650u
 +0:vss     =   0.      1:1       = 795.1209m 1:2       =   1.8000 
 +1:3       =  51.9790m 2:s1ns    =  15.2627n 2:s1pd    =  96.2418m


 maximum nodal capacitance=   1.030E-12         on node     0:st_in           

    nodal  capacitance table 

    node    =    cap      node    =    cap      node    =    cap

 +0:cv_in   = 758.7316a 0:osc_out =   4.0107f 0:st_in   =   1.0298p
 +0:st_out  =  15.2039f 0:vdd     =  86.9328f 0:vf      =  13.9593f
 +0:vss     =  13.4279f 1:1       =  17.0583f 1:2       =  43.0047f
 +1:3       =   1.3406f 2:s1ns    =   5.8333f 2:s1pd    =  10.4561f

 

 ****  voltage sources

 subckt                                              
 element  0:v0       0:vdd      0:vss      0:vin     
  volts      0.         1.8000     0.       900.0000m
  current -2.711e-20 -232.1058u   55.6106u    0.     
  power      0.       417.7904u    0.         0.     

     total voltage source power dissipation=  417.7904u       watts




 **** mosfets


 subckt   xvco_amp   xvco_amp   xvco_amp   xvco_amp   xvco_amp   xvco_amp  
 element  1:m6       1:m5       1:m4       1:m3       1:m2       1:m1      
 model    0:pch.8    0:nch.16   0:pch.8    0:pch.8    0:nch.16   0:nch.16  
 region     Saturati   Saturati     Linear     Linear     Cutoff     Cutoff
  id       -55.6106u   55.6106u   -4.6259p   -4.6255p    1.0783p    2.6704p
  ibs      1.027e-20 -1.742e-20  8.558e-28  3.420e-24   -2.0618a -8.560e-28
  ibd        4.3781a  -13.5216f  3.418e-24  5.119e-24 -914.9331a   -2.0618a
  vgs       -1.0049   900.0000m   -1.0049    -1.8000   -51.9773m    1.7650u
  vds       -1.0049   795.1209m   -4.4360n   -2.2068n    1.7480    51.9790m
  vbs        0.         0.         0.         4.4360n  -51.9790m    0.     
  vth     -498.3100m  520.6366m -502.0180m -502.0180m  532.0986m  522.3207m
  vdsat   -372.2861m  240.3588m -370.3290m -761.1363m   44.6110m   44.4965m
  vod     -506.5691m  379.3634m -502.8611m   -1.2980  -584.0759m -522.3189m
  beta     471.4368u    1.1088m    2.3557m    2.0201m    1.1378m    1.1385m
  gam eff  642.7241m  902.3220m  642.7243m  642.7243m  907.5849m  902.3025m
  gm       177.2858u  192.0989u    7.7914p    2.1305p   31.6262p   77.8622p
  gds        8.2191u    9.4584u    1.0433m    2.0981m  408.6342f   16.6648p
  gmb       61.3124u   53.6809u    3.2651p    1.3835p    9.3766p   24.8201p
  cdtot      1.5344f  571.4326a   22.7036f   23.4943f  510.3307a  670.3138a
  cgtot      2.2606f  758.7316a   12.6919f   12.9993f  479.9999a  479.9996a
  cstot      3.4801f    1.1623f   19.8412f   20.3010f  670.3138a  682.1512a
  cbtot      3.1414f    1.1386f   18.2890f   18.2774f    1.0830f    1.2548f
  cgs        1.8038f  543.9389a    6.6319f    6.7680f  144.4169a  144.4168a
  cgd      386.9123a  143.9179a    6.1240f    6.3771f  144.4010a  144.4010a



 subckt   xschimmit  xschimmit  xschimmit  xschimmit  xschimmit  xschimmit 
 element  2:ms1p     2:ms2p     2:ms1n     2:ms2n     2:ms3p     2:ms3n    
 model    0:pch.8    0:pch.8    0:nch.16   0:nch.16   0:pch.16   0:nch.16  
 region       Cutoff     Cutoff     Linear     Linear     Cutoff     Cutoff
  id        -3.5796p    0.       192.4874f   11.7316p   -6.6022p    7.9306p
  ibs      9.772e-28    0.         0.      -3.689e-27  1.840e-27 -3.060e-27
  ibd       52.9697a    3.8665a -2.310e-26 -1.408e-24    1.9137a   -8.4650f
  vgs       -6.6429n    1.7038     1.8000     1.8000   -96.2418m  250.4237p
  vds       -1.7038   -96.2418m  250.4237p   15.2627n  -96.2418m    1.8000 
  vbs        0.         0.         0.         0.         0.         0.     
  vth     -495.6917m -501.6607m  522.4422m  522.4422m -499.7554m  518.2337m
  vdsat    -40.7345m  -40.7357m  511.6560m  511.6560m  -41.1714m   44.4956m
  vod      495.6917m    2.2054     1.2776     1.2776   403.5136m -518.2337m
  beta     509.5656u  508.7624u  934.1665u  934.1665u  168.6511u    1.1388m
  gam eff  642.7243m  642.7243m  902.3025m  902.3025m  673.3636m  902.3025m
  gm       102.0809p    0.        68.8984f    4.1992p  198.5704p  231.2113p
  gds        2.4602p    0.       772.6859u  772.6858u   11.5781p    2.8684p
  gmb       37.8936p    0.        37.8877f    2.3092p   71.3668p   70.1731p
  cdtot      1.4002f    1.8684f    1.4617f    1.4617f  746.9282a  510.3307a
  cgtot      1.3145f    2.6760f  889.6722a  889.6722a  434.6345a  479.9998a
  cstot      1.9294f    1.9294f    1.3201f    1.3201f  772.1022a  682.1512a
  cbtot      3.0828f    4.9124f    1.2746f    1.2746f    1.4420f    1.0949f
  cgs      390.3380a  390.3826a  417.9108a  417.9108a  127.9272a  144.4168a
  cgd      390.3200a  390.3200a  436.6655a  436.6655a  127.9200a  144.4010a



 subckt   xinverter  xinverter 
 element  3:m1       3:m2      
 model    0:pch.7    0:nch.11  
 region     Saturati     Cutoff
  id      -176.4952u  104.3768a
  ibs      2.880e-20    0.     
  ibd        2.5123f -2.885e-22
  vgs       -1.8000    15.5131n
  vds       -1.8000     1.7650u
  vbs        0.         0.     
  vth     -463.8733m  493.6221m
  vdsat   -962.9239m   43.6073m
  vod       -1.3361  -493.6221m
  beta     250.3614u  801.4230u
  gam eff  568.5589m  589.5758m
  gm       205.1628u    3.1580f
  gds        6.3272u   59.1373p
  gmb       79.6475u    1.0293f
  cdtot      2.5457f    1.4650f
  cgtot      9.1313f    1.8278f
  cstot     11.7686f    1.4650f
  cbtot      6.6126f    3.3005f
  cgs        8.3334f  364.3372a
  cgd      752.0817a  364.3015a



1****** HSPICE -- B-2008.09 32-BIT (Aug 26 2008) winnt ******                   
 ******  
 *voltage controlled oscillator

  ******  transient analysis tnom=  25.000 temp=  25.000 *****
 ***** operating point status is voltage   simulation time is     0.     

   *** source        0:vin              =    2.000E-01 ***

    node    =voltage      node    =voltage      node    =voltage

 +0:cv_in   = 200.0000m 0:osc_out =   1.7650u 0:st_in   =   1.8000 
 +0:st_out  =  15.5132n 0:vdd     =   1.8000  0:vf      =   1.7650u
 +0:vss     =   0.      1:1       =   1.5433  1:2       =   1.8000 
 +1:3       =  51.9788m 2:s1ns    =  15.2627n 2:s1pd    =  96.2477m


 maximum nodal capacitance=   1.030E-12         on node     0:st_in           

    nodal  capacitance table 

    node    =    cap      node    =    cap      node    =    cap

 +0:cv_in   = 465.5113a 0:osc_out =   4.0107f 0:st_in   =   1.0298p
 +0:st_out  =  15.2039f 0:vdd     =  74.9601f 0:vf      =  13.9593f
 +0:vss     =  12.9015f 1:1       =   9.8671f 1:2       =  29.9530f
 +1:3       =   1.3406f 2:s1ns    =   5.8333f 2:s1pd    =  10.4561f

 
 ******  
 *voltage controlled oscillator

  ******  transient analysis tnom=  25.000 temp=  25.000 *****
   period= failed                          trig= not found
   poslength= failed                          trig= not found

          ***** job concluded
1****** HSPICE -- B-2008.09 32-BIT (Aug 26 2008) winnt ******                   
 ******  
 *voltage controlled oscillator

  ******  transient analysis tnom=  25.000 temp=  25.000 *****
 ***** operating point status is voltage   simulation time is     0.     

   *** source        0:vin              =    2.100E-01 ***

    node    =voltage      node    =voltage      node    =voltage

 +0:cv_in   = 210.0000m 0:osc_out =   1.7650u 0:st_in   =   1.8000 
 +0:st_out  =  15.5131n 0:vdd     =   1.8000  0:vf      =   1.7650u
 +0:vss     =   0.      1:1       =   1.5337  1:2       =   1.8000 
 +1:3       =  51.9789m 2:s1ns    =  15.2627n 2:s1pd    =  96.2463m


 maximum nodal capacitance=   1.030E-12         on node     0:st_in           

    nodal  capacitance table 

    node    =    cap      node    =    cap      node    =    cap

 +0:cv_in   = 464.8810a 0:osc_out =   4.0107f 0:st_in   =   1.0298p
 +0:st_out  =  15.2039f 0:vdd     =  74.9472f 0:vf      =  13.9593f
 +0:vss     =  12.9014f 1:1       =   9.8538f 1:2       =  29.9547f
 +1:3       =   1.3406f 2:s1ns    =   5.8333f 2:s1pd    =  10.4561f

 
 ******  
 *voltage controlled oscillator

  ******  transient analysis tnom=  25.000 temp=  25.000 *****
   period= failed                          trig= not found
   poslength= failed                          trig= not found

          ***** job concluded
1****** HSPICE -- B-2008.09 32-BIT (Aug 26 2008) winnt ******                   
 ******  
 *voltage controlled oscillator

  ******  transient analysis tnom=  25.000 temp=  25.000 *****
 ***** operating point status is voltage   simulation time is     0.     

   *** source        0:vin              =    2.200E-01 ***

    node    =voltage      node    =voltage      node    =voltage

 +0:cv_in   = 220.0000m 0:osc_out =   1.7650u 0:st_in   =   1.8000 
 +0:st_out  =  15.5131n 0:vdd     =   1.8000  0:vf      =   1.7650u
 +0:vss     =   0.      1:1       =   1.5240  1:2       =   1.8000 
 +1:3       =  51.9789m 2:s1ns    =  15.2627n 2:s1pd    =  96.2452m


 maximum nodal capacitance=   1.030E-12         on node     0:st_in           

    nodal  capacitance table 

    node    =    cap      node    =    cap      node    =    cap

 +0:cv_in   = 464.2605a 0:osc_out =   4.0107f 0:st_in   =   1.0298p
 +0:st_out  =  15.2039f 0:vdd     =  74.9352f 0:vf      =  13.9593f
 +0:vss     =  12.9012f 1:1       =   9.8410f 1:2       =  29.9571f
 +1:3       =   1.3406f 2:s1ns    =   5.8333f 2:s1pd    =  10.4561f

 
 ******  
 *voltage controlled oscillator

  ******  transient analysis tnom=  25.000 temp=  25.000 *****
   period= failed                          trig= not found
   poslength= failed                          trig= not found

          ***** job concluded
1****** HSPICE -- B-2008.09 32-BIT (Aug 26 2008) winnt ******                   
 ******  
 *voltage controlled oscillator

  ******  transient analysis tnom=  25.000 temp=  25.000 *****
 ***** operating point status is voltage   simulation time is     0.     

   *** source        0:vin              =    2.300E-01 ***

    node    =voltage      node    =voltage      node    =voltage

 +0:cv_in   = 230.0000m 0:osc_out =   1.7650u 0:st_in   =   1.8000 
 +0:st_out  =  15.5131n 0:vdd     =   1.8000  0:vf      =   1.7650u
 +0:vss     =   0.      1:1       =   1.5143  1:2       =   1.8000 
 +1:3       =  51.9789m 2:s1ns    =  15.2627n 2:s1pd    =  96.2444m


 maximum nodal capacitance=   1.030E-12         on node     0:st_in           

    nodal  capacitance table 

    node    =    cap      node    =    cap      node    =    cap

 +0:cv_in   = 463.6505a 0:osc_out =   4.0107f 0:st_in   =   1.0298p
 +0:st_out  =  15.2039f 0:vdd     =  74.9241f 0:vf      =  13.9593f
 +0:vss     =  12.9011f 1:1       =   9.8289f 1:2       =  29.9603f
 +1:3       =   1.3406f 2:s1ns    =   5.8333f 2:s1pd    =  10.4561f

 
 ******  
 *voltage controlled oscillator

  ******  transient analysis tnom=  25.000 temp=  25.000 *****
   period= failed                          trig= not found
   poslength= failed                          trig= not found

          ***** job concluded
1****** HSPICE -- B-2008.09 32-BIT (Aug 26 2008) winnt ******                   
 ******  
 *voltage controlled oscillator

  ******  transient analysis tnom=  25.000 temp=  25.000 *****
 ***** operating point status is voltage   simulation time is     0.     

   *** source        0:vin              =    2.400E-01 ***

    node    =voltage      node    =voltage      node    =voltage

 +0:cv_in   = 240.0000m 0:osc_out =   1.7650u 0:st_in   =   1.8000 
 +0:st_out  =  15.5131n 0:vdd     =   1.8000  0:vf      =   1.7650u
 +0:vss     =   0.      1:1       =   1.5045  1:2       =   1.8000 
 +1:3       =  51.9790m 2:s1ns    =  15.2627n 2:s1pd    =  96.2439m


 maximum nodal capacitance=   1.030E-12         on node     0:st_in           

    nodal  capacitance table 

    node    =    cap      node    =    cap      node    =    cap

 +0:cv_in   = 463.0520a 0:osc_out =   4.0107f 0:st_in   =   1.0298p
 +0:st_out  =  15.2039f 0:vdd     =  74.9144f 0:vf      =  13.9593f
 +0:vss     =  12.9010f 1:1       =   9.8176f 1:2       =  29.9646f
 +1:3       =   1.3406f 2:s1ns    =   5.8333f 2:s1pd    =  10.4561f

 
 ******  
 *voltage controlled oscillator

  ******  transient analysis tnom=  25.000 temp=  25.000 *****
   period= failed                          trig= not found
   poslength= failed                          trig= not found

          ***** job concluded
1****** HSPICE -- B-2008.09 32-BIT (Aug 26 2008) winnt ******                   
 ******  
 *voltage controlled oscillator

  ******  transient analysis tnom=  25.000 temp=  25.000 *****
 ***** operating point status is voltage   simulation time is     0.     

   *** source        0:vin              =    2.500E-01 ***

    node    =voltage      node    =voltage      node    =voltage

 +0:cv_in   = 250.0000m 0:osc_out =   1.7650u 0:st_in   =   1.8000 
 +0:st_out  =  15.5131n 0:vdd     =   1.8000  0:vf      =   1.7650u
 +0:vss     =   0.      1:1       =   1.4947  1:2       =   1.8000 
 +1:3       =  51.9790m 2:s1ns    =  15.2627n 2:s1pd    =  96.2434m


 maximum nodal capacitance=   1.030E-12         on node     0:st_in           

    nodal  capacitance table 

    node    =    cap      node    =    cap      node    =    cap

 +0:cv_in   = 462.4664a 0:osc_out =   4.0107f 0:st_in   =   1.0298p
 +0:st_out  =  15.2039f 0:vdd     =  74.9066f 0:vf      =  13.9593f
 +0:vss     =  12.9010f 1:1       =   9.8074f 1:2       =  29.9704f
 +1:3       =   1.3406f 2:s1ns    =   5.8333f 2:s1pd    =  10.4561f

 
 ******  
 *voltage controlled oscillator

  ******  transient analysis tnom=  25.000 temp=  25.000 *****
   period= failed                          trig= not found
   poslength= failed                          trig= not found

          ***** job concluded
1****** HSPICE -- B-2008.09 32-BIT (Aug 26 2008) winnt ******                   
 ******  
 *voltage controlled oscillator

  ******  transient analysis tnom=  25.000 temp=  25.000 *****
 ***** operating point status is voltage   simulation time is     0.     

   *** source        0:vin              =    2.600E-01 ***

    node    =voltage      node    =voltage      node    =voltage

 +0:cv_in   = 260.0000m 0:osc_out =   1.7650u 0:st_in   =   1.8000 
 +0:st_out  =  15.5131n 0:vdd     =   1.8000  0:vf      =   1.7650u
 +0:vss     =   0.      1:1       =   1.4849  1:2       =   1.8000 
 +1:3       =  51.9790m 2:s1ns    =  15.2627n 2:s1pd    =  96.2430m


 maximum nodal capacitance=   1.030E-12         on node     0:st_in           

    nodal  capacitance table 

    node    =    cap      node    =    cap      node    =    cap

 +0:cv_in   = 461.8956a 0:osc_out =   4.0107f 0:st_in   =   1.0298p
 +0:st_out  =  15.2039f 0:vdd     =  74.9013f 0:vf      =  13.9593f
 +0:vss     =  12.9009f 1:1       =   9.7987f 1:2       =  29.9783f
 +1:3       =   1.3406f 2:s1ns    =   5.8333f 2:s1pd    =  10.4561f

 
 ******  
 *voltage controlled oscillator

  ******  transient analysis tnom=  25.000 temp=  25.000 *****
   period= failed                          trig= not found
   poslength= failed                          trig= not found

          ***** job concluded
1****** HSPICE -- B-2008.09 32-BIT (Aug 26 2008) winnt ******                   
 ******  
 *voltage controlled oscillator

  ******  transient analysis tnom=  25.000 temp=  25.000 *****
 ***** operating point status is voltage   simulation time is     0.     

   *** source        0:vin              =    2.700E-01 ***

    node    =voltage      node    =voltage      node    =voltage

 +0:cv_in   = 270.0000m 0:osc_out =   1.7650u 0:st_in   =   1.8000 
 +0:st_out  =  15.5131n 0:vdd     =   1.8000  0:vf      =   1.7650u
